# test
Id,Time[ns],0:I²C: Address/Data
1,838049000.00,Start
2,838050000.00,Stop
3,842026000.00,Start
4,842047000.00,Address write: A8
5,842232000.00,Write
6,842268000.00,ACK
7,842318000.00,Data write: 00
8,842539000.00,ACK
9,842589000.00,Start repeat
10,842610000.00,Address read: A9
11,842796000.00,Read
12,842831000.00,ACK
13,842878000.00,Data read: AC
14,843122000.00,NACK
15,843161000.00,Stop
16,843290000.00,Start
17,843311000.00,Address write: A8
18,843496000.00,Write
19,843532000.00,ACK
20,843582000.00,Data write: 00
21,843803000.00,ACK
22,843853000.00,Start repeat
23,843874000.00,Address read: A9
24,844071000.00,Read
25,844107000.00,ACK
26,844154000.00,Data read: AC
27,844385000.00,ACK
28,844421000.00,Data read: 0D
29,844653000.00,ACK
30,844689000.00,Data read: 00
31,844921000.00,ACK
32,844957000.00,Data read: 00
33,845200000.00,ACK
34,845236000.00,Data read: C0
35,845468000.00,ACK
36,845504000.00,Data read: 00
37,845736000.00,ACK
38,845772000.00,Data read: 00
39,846015000.00,ACK
40,846051000.00,Data read: 01
41,846283000.00,ACK
42,846319000.00,Data read: 00
43,846551000.00,ACK
44,846587000.00,Data read: C4
45,846819000.00,ACK
46,846854000.00,Data read: 09
47,847098000.00,ACK
48,847134000.00,Data read: 00
49,847366000.00,ACK
50,847402000.00,Data read: 00
51,847634000.00,ACK
52,847670000.00,Data read: 00
53,847901000.00,ACK
54,847937000.00,Data read: 00
55,848181000.00,ACK
56,848217000.00,Data read: FE
57,848449000.00,ACK
58,848485000.00,Data read: FF
59,848717000.00,ACK
60,848753000.00,Data read: 32
61,848986000.00,ACK
62,849032000.00,Data read: 64
63,849264000.00,ACK
64,849300000.00,Data read: DC
65,849532000.00,ACK
66,849568000.00,Data read: 49
67,849800000.00,ACK
68,849836000.00,Data read: 01
69,850080000.00,ACK
70,850116000.00,Data read: 00
71,850347000.00,ACK
72,850383000.00,Data read: F8
73,850615000.00,ACK
74,850651000.00,Data read: 43
75,850883000.00,ACK
76,850919000.00,Data read: 00
77,851163000.00,ACK
78,851199000.00,Data read: 00
79,851431000.00,ACK
80,851466000.00,Data read: 65
81,851698000.00,ACK
82,851734000.00,Data read: 3A
83,851967000.00,ACK
84,852014000.00,Data read: 00
85,852246000.00,ACK
86,852282000.00,Data read: 00
87,852514000.00,ACK
88,852549000.00,Data read: 05
89,852781000.00,ACK
90,852817000.00,Data read: 34
91,853061000.00,ACK
92,853097000.00,Data read: 00
93,853329000.00,ACK
94,853365000.00,Data read: 00
95,853597000.00,ACK
96,853632000.00,Data read: 01
97,853864000.00,ACK
98,853900000.00,Data read: 4E
99,854144000.00,ACK
100,854180000.00,Data read: 01
101,854412000.00,ACK
102,854448000.00,Data read: 00
103,854680000.00,ACK
104,854716000.00,Data read: A2
105,854948000.00,ACK
106,854995000.00,Data read: 71
107,855227000.00,ACK
108,855263000.00,Data read: 00
109,855495000.00,ACK
110,855531000.00,Data read: 00
111,855763000.00,ACK
112,855799000.00,Data read: 21
113,856043000.00,ACK
114,856079000.00,Data read: 32
115,856311000.00,ACK
116,856347000.00,Data read: 00
117,856578000.00,ACK
118,856614000.00,Data read: 00
119,856846000.00,ACK
120,856882000.00,Data read: F0
121,857126000.00,ACK
122,857162000.00,Data read: 2F
123,857394000.00,ACK
124,857430000.00,Data read: 00
125,857662000.00,ACK
126,857698000.00,Data read: 00
127,857929000.00,ACK
128,857966000.00,Data read: 0D
129,858209000.00,ACK
130,858245000.00,Data read: 51
131,858477000.00,ACK
132,858513000.00,Data read: 01
133,858745000.00,ACK
134,858781000.00,Data read: 00
135,859025000.00,ACK
136,859061000.00,Data read: 35
137,859292000.00,ACK
138,859328000.00,Data read: 98
139,859560000.00,ACK
140,859596000.00,Data read: 00
141,859828000.00,ACK
142,859864000.00,Data read: 00
143,860108000.00,ACK
144,860144000.00,Data read: 1B
145,860376000.00,ACK
146,860411000.00,Data read: 2C
147,860643000.00,ACK
148,860679000.00,Data read: 00
149,860911000.00,ACK
150,860947000.00,Data read: 00
151,861191000.00,ACK
152,861227000.00,Data read: 13
153,861458000.00,ACK
154,861494000.00,Data read: 2F
155,861726000.00,ACK
156,861762000.00,Data read: 00
157,862006000.00,ACK
158,862041000.00,Data read: 00
159,862273000.00,ACK
160,862309000.00,Data read: 07
161,862541000.00,ACK
162,862577000.00,Data read: 5E
163,862808000.00,ACK
164,862844000.00,Data read: 01
165,863088000.00,ACK
166,863124000.00,Data read: 00
167,863356000.00,ACK
168,863391000.00,Data read: F8
169,863623000.00,ACK
170,863659000.00,Data read: 50
171,863891000.00,ACK
172,863927000.00,Data read: 01
173,864170000.00,ACK
174,864206000.00,Data read: 00
175,864438000.00,ACK
176,864474000.00,Data read: BC
177,864705000.00,ACK
178,864741000.00,Data read: 13
179,864985000.00,ACK
180,865021000.00,Data read: 00
181,865252000.00,ACK
182,865288000.00,Data read: 00
183,865520000.00,ACK
184,865556000.00,Data read: 3D
185,865788000.00,ACK
186,865824000.00,Data read: 2D
187,866067000.00,ACK
188,866103000.00,Data read: 00
189,866335000.00,ACK
190,866371000.00,Data read: 00
191,866603000.00,ACK
192,866638000.00,Data read: EB
193,866870000.00,ACK
194,866906000.00,Data read: 7E
195,867150000.00,ACK
196,867186000.00,Data read: 01
197,867418000.00,ACK
198,867453000.00,Data read: 00
199,867685000.00,ACK
200,867721000.00,Data read: C2
201,867954000.00,ACK
202,868001000.00,Data read: 5A
203,868233000.00,ACK
204,868268000.00,Data read: 01
205,868500000.00,ACK
206,868536000.00,Data read: 00
207,868768000.00,ACK
208,868804000.00,Data read: 92
209,869048000.00,ACK
210,869083000.00,Data read: FF
211,869315000.00,ACK
212,869351000.00,Data read: FF
213,869583000.00,ACK
214,869619000.00,Data read: FF
215,869851000.00,ACK
216,869887000.00,Data read: 08
217,870130000.00,ACK
218,870166000.00,Data read: 2F
219,870398000.00,ACK
220,870434000.00,Data read: 00
221,870666000.00,ACK
222,870701000.00,Data read: 00
223,870933000.00,ACK
224,870981000.00,Data read: 48
225,871213000.00,ACK
226,871249000.00,Data read: 81
227,871481000.00,ACK
228,871516000.00,Data read: 01
229,871748000.00,ACK
230,871784000.00,Data read: 00
231,872028000.00,ACK
232,872064000.00,Data read: 91
233,872296000.00,ACK
234,872332000.00,Data read: 5B
235,872564000.00,ACK
236,872600000.00,Data read: 01
237,872832000.00,ACK
238,872867000.00,Data read: 00
239,873111000.00,ACK
240,873147000.00,Data read: 93
241,873379000.00,ACK
242,873415000.00,Data read: FF
243,873647000.00,ACK
244,873683000.00,Data read: FF
245,873915000.00,ACK
246,873952000.00,Data read: FF
247,874195000.00,ACK
248,874231000.00,Data read: 16
249,874463000.00,ACK
250,874499000.00,Data read: 2F
251,874731000.00,ACK
252,874767000.00,Data read: 00
253,875010000.00,ACK
254,875046000.00,Data read: 00
255,875278000.00,ACK
256,875314000.00,Data read: 55
257,875546000.00,ACK
258,875582000.00,Data read: 80
259,875814000.00,ACK
260,875850000.00,Data read: 01
261,876093000.00,ACK
262,876129000.00,Data read: 00
263,876361000.00,ACK
264,876397000.00,Data read: 64
265,876629000.00,ACK
266,876665000.00,Data read: 5B
267,876897000.00,ACK
268,876933000.00,Data read: 01
269,877176000.00,ACK
270,877212000.00,Data read: 00
271,877444000.00,ACK
272,877480000.00,Data read: 81
273,877712000.00,ACK
274,877748000.00,Data read: 00
275,877991000.00,ACK
276,878027000.00,Data read: 00
277,878259000.00,ACK
278,878295000.00,Data read: 00
279,878527000.00,ACK
280,878562000.00,Data read: 47
281,878794000.00,ACK
282,878830000.00,Data read: 2F
283,879074000.00,ACK
284,879110000.00,Data read: 00
285,879341000.00,ACK
286,879377000.00,Data read: 00
287,879609000.00,ACK
288,879645000.00,Data read: 28
289,879877000.00,ACK
290,879912000.00,Data read: 19
291,880156000.00,ACK
292,880192000.00,Data read: 0A
293,880424000.00,ACK
294,880460000.00,Data read: 00
295,880691000.00,ACK
296,880727000.00,Data read: 6F
297,880971000.00,ACK
298,881007000.00,Data read: 2E
299,881238000.00,ACK
300,881274000.00,Data read: FD
301,881506000.00,ACK
302,881542000.00,Data read: FF
303,881774000.00,ACK
304,881810000.00,Data read: A0
305,882053000.00,ACK
306,882089000.00,Data read: 86
307,882321000.00,ACK
308,882357000.00,Data read: 01
309,882589000.00,ACK
310,882624000.00,Data read: 00
311,882856000.00,ACK
312,882892000.00,Data read: 00
313,883136000.00,ACK
314,883172000.00,Data read: 00
315,883403000.00,ACK
316,883439000.00,Data read: 00
317,883671000.00,ACK
318,883707000.00,Data read: 00
319,883940000.00,ACK
320,883986000.00,Data read: 00
321,884218000.00,ACK
322,884254000.00,Data read: 00
323,884486000.00,ACK
324,884521000.00,Data read: 00
325,884753000.00,ACK
326,884789000.00,Data read: 00
327,885033000.00,ACK
328,885069000.00,Data read: 00
329,885301000.00,ACK
330,885336000.00,Data read: 00
331,885568000.00,ACK
332,885604000.00,Data read: 00
333,885836000.00,ACK
334,885872000.00,Data read: 00
335,886116000.00,ACK
336,886152000.00,Data read: 00
337,886383000.00,ACK
338,886419000.00,Data read: 00
339,886651000.00,ACK
340,886687000.00,Data read: 00
341,886919000.00,ACK
342,886967000.00,Data read: 00
343,887198000.00,ACK
344,887234000.00,Data read: 00
345,887466000.00,ACK
346,887502000.00,Data read: 00
347,887734000.00,ACK
348,887769000.00,Data read: 00
349,888013000.00,ACK
350,888049000.00,Data read: 00
351,888281000.00,ACK
352,888316000.00,Data read: 00
353,888548000.00,ACK
354,888584000.00,Data read: 00
355,888816000.00,ACK
356,888852000.00,Data read: 00
357,889095000.00,ACK
358,889131000.00,Data read: 00
359,889363000.00,ACK
360,889399000.00,Data read: 00
361,889630000.00,ACK
362,889666000.00,Data read: 00
363,889898000.00,ACK
364,889935000.00,Data read: 00
365,890177000.00,ACK
366,890213000.00,Data read: 00
367,890445000.00,ACK
368,890481000.00,Data read: 00
369,890713000.00,ACK
370,890748000.00,Data read: 00
371,890992000.00,ACK
372,891028000.00,Data read: 00
373,891260000.00,ACK
374,891296000.00,Data read: 00
375,891527000.00,ACK
376,891563000.00,Data read: 00
377,891795000.00,ACK
378,891831000.00,Data read: 00
379,892075000.00,ACK
380,892110000.00,Data read: 00
381,892342000.00,ACK
382,892378000.00,Data read: 00
383,892610000.00,ACK
384,892646000.00,Data read: 00
385,892877000.00,ACK
386,892914000.00,Data read: 00
387,893157000.00,ACK
388,893193000.00,Data read: 00
389,893424000.00,ACK
390,893460000.00,Data read: 00
391,893692000.00,ACK
392,893728000.00,Data read: 00
393,893972000.00,ACK
394,894007000.00,Data read: 00
395,894239000.00,ACK
396,894275000.00,Data read: 00
397,894507000.00,ACK
398,894543000.00,Data read: 00
399,894774000.00,ACK
400,894810000.00,Data read: 04
401,895054000.00,ACK
402,895090000.00,Data read: 00
403,895322000.00,ACK
404,895357000.00,Data read: 01
405,895589000.00,ACK
406,895625000.00,Data read: 80
407,895857000.00,ACK
408,895893000.00,Data read: 25
409,896137000.00,ACK
410,896173000.00,Data read: 00
411,896404000.00,ACK
412,896440000.00,Data read: 01
413,896672000.00,ACK
414,896708000.00,Data read: C0
415,896952000.00,ACK
416,896988000.00,Data read: C6
417,897220000.00,ACK
418,897255000.00,Data read: 2D
419,897487000.00,ACK
420,897523000.00,Data read: 00
421,897755000.00,ACK
422,897791000.00,Data read: 80
423,898035000.00,ACK
424,898071000.00,Data read: 84
425,898303000.00,ACK
426,898339000.00,Data read: 1E
427,898570000.00,ACK
428,898606000.00,Data read: 00
429,898838000.00,ACK
430,898874000.00,Data read: 40
431,899118000.00,ACK
432,899154000.00,Data read: 66
433,899386000.00,ACK
434,899421000.00,Data read: 03
435,899653000.00,ACK
436,899689000.00,Data read: 01
437,899922000.00,ACK
438,899969000.00,Data read: 80
439,900201000.00,ACK
440,900237000.00,Data read: A8
441,900468000.00,ACK
442,900504000.00,Data read: 12
443,900736000.00,ACK
444,900772000.00,Data read: 01
445,901016000.00,ACK
446,901052000.00,Data read: 20
447,901283000.00,ACK
448,901319000.00,Data read: 4E
449,901551000.00,ACK
450,901587000.00,Data read: 00
451,901819000.00,ACK
452,901855000.00,Data read: 00
453,902099000.00,ACK
454,902135000.00,Data read: 10
455,902367000.00,ACK
456,902402000.00,Data read: 27
457,902634000.00,ACK
458,902670000.00,Data read: 00
459,902903000.00,ACK
460,902950000.00,Data read: 00
461,903182000.00,ACK
462,903218000.00,Data read: 80
463,903450000.00,ACK
464,903485000.00,Data read: 38
465,903717000.00,ACK
466,903753000.00,Data read: 01
467,903997000.00,ACK
468,904033000.00,Data read: 00
469,904265000.00,ACK
470,904301000.00,Data read: 90
471,904532000.00,ACK
472,904568000.00,Data read: 5F
473,904800000.00,ACK
474,904836000.00,Data read: 01
475,905080000.00,ACK
476,905116000.00,Data read: 00
477,905348000.00,ACK
478,905383000.00,Data read: 80
479,905615000.00,ACK
480,905651000.00,Data read: 84
481,905883000.00,ACK
482,905920000.00,Data read: 1E
483,906163000.00,ACK
484,906198000.00,Data read: 00
485,906430000.00,ACK
486,906466000.00,Data read: 40
487,906698000.00,ACK
488,906734000.00,Data read: 42
489,906978000.00,ACK
490,907014000.00,Data read: 0F
491,907245000.00,ACK
492,907281000.00,Data read: 00
493,907513000.00,ACK
494,907549000.00,Data read: 00
495,907781000.00,ACK
496,907817000.00,Data read: 12
497,908060000.00,ACK
498,908096000.00,Data read: 7A
499,908328000.00,ACK
500,908364000.00,Data read: 00
501,908596000.00,ACK
502,908632000.00,Data read: 40
503,908864000.00,ACK
504,908901000.00,Data read: 54
505,909143000.00,ACK
506,909179000.00,Data read: 89
507,909411000.00,ACK
508,909447000.00,Data read: 00
509,909679000.00,ACK
510,909715000.00,Data read: 20
511,909958000.00,ACK
512,909994000.00,Data read: 4E
513,910226000.00,ACK
514,910262000.00,Data read: 00
515,910494000.00,ACK
516,910530000.00,Data read: 00
517,910761000.00,ACK
518,910797000.00,Data read: 10
519,911041000.00,ACK
520,911077000.00,Data read: 27
521,911309000.00,ACK
522,911345000.00,Data read: 00
523,911576000.00,ACK
524,911612000.00,Data read: 00
525,911844000.00,ACK
526,911880000.00,Data read: 80
527,912124000.00,ACK
528,912160000.00,Data read: 38
529,912391000.00,ACK
530,912427000.00,Data read: 01
531,912659000.00,ACK
532,912695000.00,Data read: 00
533,912939000.00,ACK
534,912975000.00,Data read: 90
535,913206000.00,ACK
536,913242000.00,Data read: 5F
537,913474000.00,ACK
538,913510000.00,Data read: 01
539,913742000.00,ACK
540,913778000.00,Data read: 00
541,914022000.00,ACK
542,914057000.00,Data read: 00
543,914289000.00,ACK
544,914325000.00,Data read: 02
545,914557000.00,ACK
546,914593000.00,Data read: 00
547,914825000.00,ACK
548,914861000.00,Data read: 00
549,915104000.00,ACK
550,915140000.00,Data read: 00
551,915372000.00,ACK
552,915408000.00,Data read: 0A
553,915640000.00,ACK
554,915676000.00,Data read: 00
555,915908000.00,ACK
556,915955000.00,Data read: 00
557,916187000.00,ACK
558,916223000.00,Data read: 00
559,916455000.00,ACK
560,916491000.00,Data read: C0
561,916722000.00,ACK
562,916758000.00,Data read: C6
563,917002000.00,ACK
564,917038000.00,Data read: 2D
565,917270000.00,ACK
566,917306000.00,Data read: 00
567,917537000.00,ACK
568,917573000.00,Data read: 80
569,917805000.00,ACK
570,917841000.00,Data read: 84
571,918085000.00,ACK
572,918121000.00,Data read: 1E
573,918353000.00,ACK
574,918389000.00,Data read: 00
575,918620000.00,ACK
576,918656000.00,Data read: 40
577,918889000.00,ACK
578,918936000.00,Data read: 66
579,919168000.00,ACK
580,919204000.00,Data read: 03
581,919436000.00,ACK
582,919471000.00,Data read: 01
583,919703000.00,ACK
584,919739000.00,Data read: 80
585,919983000.00,ACK
586,920019000.00,Data read: A8
587,920251000.00,ACK
588,920287000.00,Data read: 12
589,920519000.00,ACK
590,920554000.00,Data read: 01
591,920786000.00,ACK
592,920822000.00,Data read: 20
593,921066000.00,ACK
594,921102000.00,Data read: 4E
595,921334000.00,ACK
596,921370000.00,Data read: 00
597,921601000.00,ACK
598,921637000.00,Data read: 00
599,921869000.00,ACK
600,921906000.00,Data read: 10
601,922149000.00,ACK
602,922185000.00,Data read: 27
603,922416000.00,ACK
604,922452000.00,Data read: 00
605,922684000.00,ACK
606,922720000.00,Data read: 00
607,922964000.00,ACK
608,923000000.00,Data read: 80
609,923232000.00,ACK
610,923268000.00,Data read: 38
611,923499000.00,ACK
612,923535000.00,Data read: 01
613,923767000.00,ACK
614,923803000.00,Data read: 00
615,924047000.00,ACK
616,924083000.00,Data read: 90
617,924315000.00,ACK
618,924351000.00,Data read: 5F
619,924582000.00,ACK
620,924618000.00,Data read: 01
621,924850000.00,ACK
622,924887000.00,Data read: 00
623,925130000.00,ACK
624,925166000.00,Data read: 80
625,925397000.00,ACK
626,925433000.00,Data read: 84
627,925665000.00,ACK
628,925701000.00,Data read: 1E
629,925945000.00,ACK
630,925981000.00,Data read: 00
631,926213000.00,ACK
632,926248000.00,Data read: 40
633,926480000.00,ACK
634,926516000.00,Data read: 42
635,926748000.00,ACK
636,926784000.00,Data read: 0F
637,927028000.00,ACK
638,927063000.00,Data read: 00
639,927295000.00,ACK
640,927331000.00,Data read: 00
641,927563000.00,ACK
642,927599000.00,Data read: 12
643,927831000.00,ACK
644,927866000.00,Data read: 7A
645,928110000.00,ACK
646,928146000.00,Data read: 00
647,928378000.00,ACK
648,928414000.00,Data read: 40
649,928646000.00,ACK
650,928682000.00,Data read: 54
651,928925000.00,ACK
652,928961000.00,Data read: 89
653,929193000.00,ACK
654,929229000.00,Data read: 00
655,929461000.00,ACK
656,929497000.00,Data read: 20
657,929728000.00,ACK
658,929764000.00,Data read: 4E
659,930008000.00,ACK
660,930044000.00,Data read: 00
661,930276000.00,ACK
662,930312000.00,Data read: 00
663,930543000.00,ACK
664,930579000.00,Data read: 10
665,930811000.00,ACK
666,930847000.00,Data read: 27
667,931091000.00,ACK
668,931127000.00,Data read: 00
669,931358000.00,ACK
670,931394000.00,Data read: 00
671,931626000.00,ACK
672,931662000.00,Data read: 80
673,931894000.00,ACK
674,931941000.00,Data read: 38
675,932173000.00,ACK
676,932209000.00,Data read: 01
677,932440000.00,ACK
678,932476000.00,Data read: 00
679,932708000.00,ACK
680,932744000.00,Data read: 90
681,932987000.00,ACK
682,933023000.00,Data read: 5F
683,933255000.00,ACK
684,933291000.00,Data read: 01
685,933523000.00,ACK
686,933559000.00,Data read: 00
687,933790000.00,ACK
688,933826000.00,Data read: 00
689,934070000.00,ACK
690,934106000.00,Data read: 00
691,934337000.00,ACK
692,934373000.00,Data read: 00
693,934605000.00,ACK
694,934641000.00,Data read: 00
695,934873000.00,ACK
696,934920000.00,Data read: 00
697,935152000.00,ACK
698,935187000.00,Data read: 2D
699,935419000.00,ACK
700,935455000.00,Data read: 31
701,935687000.00,ACK
702,935722000.00,Data read: 01
703,935966000.00,ACK
704,936002000.00,Data read: 00
705,936234000.00,ACK
706,936269000.00,Data read: 00
707,936501000.00,ACK
708,936537000.00,Data read: 00
709,936769000.00,ACK
710,936805000.00,Data read: 00
711,937048000.00,ACK
712,937084000.00,Data read: A0
713,937316000.00,ACK
714,937352000.00,Data read: 86
715,937584000.00,ACK
716,937620000.00,Data read: 01
717,937851000.00,ACK
718,937899000.00,Data read: 00
719,938131000.00,ACK
720,938167000.00,Data read: 00
721,938399000.00,ACK
722,938435000.00,Data read: 00
723,938666000.00,ACK
724,938702000.00,Data read: 00
725,938946000.00,ACK
726,938982000.00,Data read: 00
727,939213000.00,ACK
728,939249000.00,Data read: 80
729,939481000.00,ACK
730,939517000.00,Data read: 96
731,939749000.00,ACK
732,939785000.00,Data read: 98
733,940029000.00,ACK
734,940064000.00,Data read: 00
735,940296000.00,ACK
736,940332000.00,Data read: 00
737,940564000.00,ACK
738,940600000.00,Data read: 00
739,940832000.00,ACK
740,940869000.00,Data read: 00
741,941111000.00,ACK
742,941147000.00,Data read: 00
743,941379000.00,ACK
744,941415000.00,Data read: A0
745,941647000.00,ACK
746,941683000.00,Data read: 86
747,941926000.00,ACK
748,941962000.00,Data read: 01
749,942194000.00,ACK
750,942230000.00,Data read: 00
751,942462000.00,ACK
752,942498000.00,Data read: 00
753,942730000.00,ACK
754,942765000.00,Data read: 00
755,943009000.00,ACK
756,943045000.00,Data read: 00
757,943277000.00,ACK
758,943313000.00,Data read: 00
759,943545000.00,ACK
760,943580000.00,Data read: 58
761,943812000.00,ACK
762,943848000.00,Data read: 1B
763,944092000.00,ACK
764,944128000.00,Data read: 00
765,944360000.00,ACK
766,944395000.00,Data read: 00
767,944627000.00,ACK
768,944663000.00,Data read: 00
769,944907000.00,ACK
770,944943000.00,Data read: E8
771,945174000.00,ACK
772,945210000.00,Data read: 03
773,945442000.00,ACK
774,945478000.00,Data read: 80
775,945710000.00,ACK
776,945746000.00,Data read: 25
777,945989000.00,ACK
778,946025000.00,Data read: 80
779,946257000.00,ACK
780,946293000.00,Data read: BB
781,946525000.00,ACK
782,946561000.00,Data read: 80
783,946792000.00,ACK
784,946828000.00,Data read: 25
785,947072000.00,ACK
786,947108000.00,Data read: 80
787,947340000.00,ACK
788,947376000.00,Data read: BB
789,947607000.00,ACK
790,947643000.00,Data read: 00
791,947887000.00,ACK
792,947923000.00,Data read: 00
793,948155000.00,ACK
794,948191000.00,Data read: 00
795,948422000.00,ACK
796,948458000.00,Data read: 00
797,948690000.00,ACK
798,948726000.00,Data read: 00
799,948970000.00,ACK
800,949006000.00,Data read: 01
801,949237000.00,ACK
802,949273000.00,Data read: A5
803,949505000.00,ACK
804,949541000.00,Data read: A5
805,949773000.00,ACK
806,949809000.00,Data read: 30
807,950052000.00,ACK
808,950088000.00,Data read: 30
809,950320000.00,ACK
810,950356000.00,Data read: 30
811,950588000.00,ACK
812,950624000.00,Data read: 30
813,950857000.00,ACK
814,950903000.00,Data read: 30
815,951135000.00,ACK
816,951171000.00,Data read: 30
817,951403000.00,ACK
818,951439000.00,Data read: 30
819,951670000.00,ACK
820,951706000.00,Data read: 30
821,951950000.00,ACK
822,951986000.00,Data read: 30
823,952218000.00,ACK
824,952254000.00,Data read: 30
825,952485000.00,ACK
826,952521000.00,Data read: 30
827,952753000.00,ACK
828,952789000.00,Data read: 30
829,953033000.00,ACK
830,953069000.00,Data read: FF
831,953300000.00,ACK
832,953336000.00,Data read: FF
833,953568000.00,ACK
834,953604000.00,Data read: FF
835,953836000.00,ACK
836,953884000.00,Data read: FF
837,954116000.00,NACK
838,954155000.00,Stop
839,954285000.00,Start
840,954306000.00,Address write: A0
841,954491000.00,Write
842,954527000.00,ACK
843,954577000.00,Data write: 00
844,954804000.00,ACK
845,954855000.00,Data write: 1C
846,955087000.00,ACK
847,955137000.00,Stop
848,955208000.00,Start
849,955229000.00,Address write: A0
850,955419000.00,Write
851,955455000.00,ACK
852,955505000.00,Data write: 01
853,955726000.00,ACK
854,955782000.00,Data write: 32
855,956015000.00,ACK
856,956065000.00,Stop
857,956136000.00,Start
858,956157000.00,Address write: A0
859,956348000.00,Write
860,956383000.00,ACK
861,956434000.00,Data write: 02
862,956655000.00,ACK
863,956705000.00,Data write: DF
864,956943000.00,ACK
865,956993000.00,Stop
866,957065000.00,Start
867,957085000.00,Address write: A0
868,957276000.00,Write
869,957311000.00,ACK
870,957362000.00,Data write: 03
871,957583000.00,ACK
872,957633000.00,Data write: 40
873,957861000.00,ACK
874,957922000.00,Stop
875,957993000.00,Start
876,958013000.00,Address write: A0
877,958199000.00,Write
878,958240000.00,ACK
879,958290000.00,Data write: 04
880,958511000.00,ACK
881,958562000.00,Data write: 3C
882,958788000.00,ACK
883,958838000.00,Stop
884,1217893000.00,Start
885,1217914000.00,Address write: A0
886,1218104000.00,Write
887,1218140000.00,ACK
888,1218190000.00,Data write: 05
889,1218411000.00,ACK
890,1218466000.00,Start repeat
891,1218487000.00,Address read: A1
892,1218685000.00,Read
893,1218720000.00,ACK
894,1218767000.00,Data read: E0
895,1219004000.00,ACK
896,1219040000.00,Data read: B8
897,1219271000.00,ACK
898,1219307000.00,Data read: FD
899,1219545000.00,NACK
900,1219596000.00,Stop
901,1229567000.00,Start
902,1229588000.00,Address write: A0
903,1229773000.00,Write
904,1229809000.00,ACK
905,1229859000.00,Data write: 05
906,1230085000.00,ACK
907,1230135000.00,Start repeat
908,1230156000.00,Address read: A1
909,1230341000.00,Read
910,1230377000.00,ACK
911,1230428000.00,Data read: E0
912,1230672000.00,ACK
913,1230708000.00,Data read: B9
914,1230945000.00,ACK
915,1230981000.00,Data read: 97
916,1231213000.00,NACK
917,1231252000.00,Stop
918,1240551000.00,Start
919,1240571000.00,Address write: A0
920,1240757000.00,Write
921,1240792000.00,ACK
922,1240843000.00,Data write: 05
923,1241069000.00,ACK
924,1241119000.00,Start repeat
925,1241139000.00,Address read: A1
926,1241325000.00,Read
927,1241360000.00,ACK
928,1241412000.00,Data read: E0
929,1241656000.00,ACK
930,1241691000.00,Data read: B9
931,1241928000.00,ACK
932,1241964000.00,Data read: 71
933,1242196000.00,NACK
934,1242235000.00,Stop
935,1251536000.00,Start
936,1251557000.00,Address write: A0
937,1251742000.00,Write
938,1251778000.00,ACK
939,1251828000.00,Data write: 05
940,1252054000.00,ACK
941,1252104000.00,Start repeat
942,1252125000.00,Address read: A1
943,1252310000.00,Read
944,1252346000.00,ACK
945,1252397000.00,Data read: E0
946,1252641000.00,ACK
947,1252677000.00,Data read: BA
948,1252914000.00,ACK
949,1252950000.00,Data read: 4D
950,1253181000.00,NACK
951,1253221000.00,Stop
952,1262521000.00,Start
953,1262542000.00,Address write: A0
954,1262727000.00,Write
955,1262763000.00,ACK
956,1262813000.00,Data write: 05
957,1263039000.00,ACK
958,1263089000.00,Start repeat
959,1263110000.00,Address read: A1
960,1263295000.00,Read
961,1263331000.00,ACK
962,1263383000.00,Data read: E0
963,1263626000.00,ACK
964,1263662000.00,Data read: BC
965,1263899000.00,ACK
966,1263935000.00,Data read: 57
967,1264167000.00,NACK
968,1264206000.00,Stop
969,1273505000.00,Start
970,1273526000.00,Address write: A0
971,1273711000.00,Write
972,1273747000.00,ACK
973,1273797000.00,Data write: 05
974,1274023000.00,ACK
975,1274073000.00,Start repeat
976,1274094000.00,Address read: A1
977,1274279000.00,Read
978,1274315000.00,ACK
979,1274366000.00,Data read: E0
980,1274610000.00,ACK
981,1274646000.00,Data read: C1
982,1274883000.00,ACK
983,1274919000.00,Data read: 77
984,1275151000.00,NACK
985,1275190000.00,Stop
986,1284491000.00,Start
987,1284512000.00,Address write: A0
988,1284697000.00,Write
989,1284733000.00,ACK
990,1284783000.00,Data write: 05
991,1285010000.00,ACK
992,1285060000.00,Start repeat
993,1285080000.00,Address read: A1
994,1285266000.00,Read
995,1285301000.00,ACK
996,1285353000.00,Data read: E0
997,1285597000.00,ACK
998,1285633000.00,Data read: C1
999,1285869000.00,ACK
1000,1285905000.00,Data read: 7B
1001,1286137000.00,NACK
1002,1286177000.00,Stop
1003,1295479000.00,Start
1004,1295499000.00,Address write: A0
1005,1295685000.00,Write
1006,1295720000.00,ACK
1007,1295771000.00,Data write: 05
1008,1295997000.00,ACK
1009,1296047000.00,Start repeat
1010,1296068000.00,Address read: A1
1011,1296253000.00,Read
1012,1296288000.00,ACK
1013,1296340000.00,Data read: E0
1014,1296584000.00,ACK
1015,1296620000.00,Data read: C5
1016,1296857000.00,ACK
1017,1296892000.00,Data read: FB
1018,1297124000.00,NACK
1019,1297164000.00,Stop
1020,1306467000.00,Start
1021,1306487000.00,Address write: A0
1022,1306673000.00,Write
1023,1306708000.00,ACK
1024,1306759000.00,Data write: 05
1025,1306985000.00,ACK
1026,1307035000.00,Start repeat
1027,1307055000.00,Address read: A1
1028,1307241000.00,Read
1029,1307276000.00,ACK
1030,1307328000.00,Data read: E0
1031,1307572000.00,ACK
1032,1307608000.00,Data read: C4
1033,1307845000.00,ACK
1034,1307881000.00,Data read: 61
1035,1308112000.00,NACK
1036,1308152000.00,Stop
1037,1317448000.00,Start
1038,1317469000.00,Address write: A0
1039,1317654000.00,Write
1040,1317690000.00,ACK
1041,1317740000.00,Data write: 05
1042,1317966000.00,ACK
1043,1318016000.00,Start repeat
1044,1318037000.00,Address read: A1
1045,1318222000.00,Read
1046,1318258000.00,ACK
1047,1318309000.00,Data read: E0
1048,1318553000.00,ACK
1049,1318589000.00,Data read: C5
1050,1318826000.00,ACK
1051,1318862000.00,Data read: E9
1052,1319094000.00,NACK
1053,1319133000.00,Stop
1054,1319155000.00,Start
1055,1319176000.00,Address write: A0
1056,1319367000.00,Write
1057,1319403000.00,ACK
1058,1319465000.00,Data write: 01
1059,1319686000.00,ACK
1060,1319736000.00,Data write: 33
1061,1319962000.00,ACK
1062,1320012000.00,Stop
1063,1329430000.00,Start
1064,1329451000.00,Address write: A0
1065,1329636000.00,Write
1066,1329672000.00,ACK
1067,1329722000.00,Data write: 05
1068,1329948000.00,ACK
1069,1329998000.00,Start repeat
1070,1330019000.00,Address read: A1
1071,1330204000.00,Read
1072,1330240000.00,ACK
1073,1330291000.00,Data read: E0
1074,1330535000.00,ACK
1075,1330571000.00,Data read: C5
1076,1330808000.00,ACK
1077,1330843000.00,Data read: E8
1078,1331075000.00,NACK
1079,1331114000.00,Stop
1080,1340415000.00,Start
1081,1340435000.00,Address write: A0
1082,1340621000.00,Write
1083,1340656000.00,ACK
1084,1340707000.00,Data write: 05
1085,1340933000.00,ACK
1086,1340983000.00,Start repeat
1087,1341003000.00,Address read: A1
1088,1341189000.00,Read
1089,1341224000.00,ACK
1090,1341276000.00,Data read: E0
1091,1341520000.00,ACK
1092,1341556000.00,Data read: C5
1093,1341793000.00,ACK
1094,1341828000.00,Data read: E8
1095,1342060000.00,NACK
1096,1342100000.00,Stop
1097,1351400000.00,Start
1098,1351421000.00,Address write: A0
1099,1351606000.00,Write
1100,1351642000.00,ACK
1101,1351692000.00,Data write: 05
1102,1351919000.00,ACK
1103,1351968000.00,Start repeat
1104,1351989000.00,Address read: A1
1105,1352175000.00,Read
1106,1352210000.00,ACK
1107,1352262000.00,Data read: A9
1108,1352506000.00,ACK
1109,1352541000.00,Data read: DB
1110,1352778000.00,ACK
1111,1352814000.00,Data read: 83
1112,1353046000.00,NACK
1113,1353085000.00,Stop
1114,1362388000.00,Start
1115,1362409000.00,Address write: A0
1116,1362594000.00,Write
1117,1362630000.00,ACK
1118,1362680000.00,Data write: 05
1119,1362906000.00,ACK
1120,1362956000.00,Start repeat
1121,1362977000.00,Address read: A1
1122,1363162000.00,Read
1123,1363198000.00,ACK
1124,1363249000.00,Data read: AC
1125,1363493000.00,ACK
1126,1363529000.00,Data read: 53
1127,1363766000.00,ACK
1128,1363802000.00,Data read: 09
1129,1364034000.00,NACK
1130,1364073000.00,Stop
1131,1373372000.00,Start
1132,1373392000.00,Address write: A0
1133,1373578000.00,Write
1134,1373613000.00,ACK
1135,1373663000.00,Data write: 05
1136,1373889000.00,ACK
1137,1373939000.00,Start repeat
1138,1373960000.00,Address read: A1
1139,1374145000.00,Read
1140,1374181000.00,ACK
1141,1374232000.00,Data read: AD
1142,1374476000.00,ACK
1143,1374512000.00,Data read: 95
1144,1374749000.00,ACK
1145,1374785000.00,Data read: 09
1146,1375016000.00,NACK
1147,1375056000.00,Stop
1148,1384357000.00,Start
1149,1384378000.00,Address write: A0
1150,1384563000.00,Write
1151,1384599000.00,ACK
1152,1384649000.00,Data write: 05
1153,1384875000.00,ACK
1154,1384925000.00,Start repeat
1155,1384946000.00,Address read: A1
1156,1385131000.00,Read
1157,1385167000.00,ACK
1158,1385218000.00,Data read: AE
1159,1385462000.00,ACK
1160,1385498000.00,Data read: CB
1161,1385735000.00,ACK
1162,1385771000.00,Data read: 45
1163,1386002000.00,NACK
1164,1386042000.00,Stop
1165,1395342000.00,Start
1166,1395363000.00,Address write: A0
1167,1395548000.00,Write
1168,1395584000.00,ACK
1169,1395634000.00,Data write: 05
1170,1395860000.00,ACK
1171,1395910000.00,Start repeat
1172,1395931000.00,Address read: A1
1173,1396116000.00,Read
1174,1396152000.00,ACK
1175,1396204000.00,Data read: B1
1176,1396447000.00,ACK
1177,1396483000.00,Data read: 63
1178,1396720000.00,ACK
1179,1396756000.00,Data read: 25
1180,1396988000.00,NACK
1181,1397027000.00,Stop
1182,1406327000.00,Start
1183,1406348000.00,Address write: A0
1184,1406533000.00,Write
1185,1406569000.00,ACK
1186,1406619000.00,Data write: 05
1187,1406845000.00,ACK
1188,1406895000.00,Start repeat
1189,1406916000.00,Address read: A1
1190,1407101000.00,Read
1191,1407137000.00,ACK
1192,1407188000.00,Data read: B2
1193,1407432000.00,ACK
1194,1407468000.00,Data read: A4
1195,1407705000.00,ACK
1196,1407741000.00,Data read: 2F
1197,1407972000.00,NACK
1198,1408012000.00,Stop
1199,1417313000.00,Start
1200,1417333000.00,Address write: A0
1201,1417519000.00,Write
1202,1417554000.00,ACK
1203,1417605000.00,Data write: 05
1204,1417831000.00,ACK
1205,1417881000.00,Start repeat
1206,1417902000.00,Address read: A1
1207,1418087000.00,Read
1208,1418123000.00,ACK
1209,1418174000.00,Data read: B3
1210,1418418000.00,ACK
1211,1418454000.00,Data read: DB
1212,1418691000.00,ACK
1213,1418727000.00,Data read: ED
1214,1418959000.00,NACK
1215,1418998000.00,Stop
1216,1428301000.00,Start
1217,1428321000.00,Address write: A0
1218,1428507000.00,Write
1219,1428542000.00,ACK
1220,1428593000.00,Data write: 05
1221,1428819000.00,ACK
1222,1428869000.00,Start repeat
1223,1428889000.00,Address read: A1
1224,1429075000.00,Read
1225,1429110000.00,ACK
1226,1429162000.00,Data read: B4
1227,1429406000.00,ACK
1228,1429442000.00,Data read: EE
1229,1429679000.00,ACK
1230,1429715000.00,Data read: B3
1231,1429946000.00,NACK
1232,1429986000.00,Stop
1233,1439287000.00,Start
1234,1439308000.00,Address write: A0
1235,1439493000.00,Write
1236,1439529000.00,ACK
1237,1439579000.00,Data write: 05
1238,1439805000.00,ACK
1239,1439855000.00,Start repeat
1240,1439876000.00,Address read: A1
1241,1440061000.00,Read
1242,1440097000.00,ACK
1243,1440149000.00,Data read: B6
1244,1440392000.00,ACK
1245,1440428000.00,Data read: E5
1246,1440665000.00,ACK
1247,1440701000.00,Data read: 21
1248,1440933000.00,NACK
1249,1440972000.00,Stop
1250,1450278000.00,Start
1251,1450298000.00,Address write: A0
1252,1450484000.00,Write
1253,1450519000.00,ACK
1254,1450570000.00,Data write: 05
1255,1450796000.00,ACK
1256,1450846000.00,Start repeat
1257,1450866000.00,Address read: A1
1258,1451052000.00,Read
1259,1451087000.00,ACK
1260,1451139000.00,Data read: B7
1261,1451383000.00,ACK
1262,1451419000.00,Data read: C4
1263,1451655000.00,ACK
1264,1451691000.00,Data read: F7
1265,1451923000.00,NACK
1266,1451962000.00,Stop
1267,1451985000.00,Start
1268,1452005000.00,Address write: A0
1269,1452196000.00,Write
1270,1452232000.00,ACK
1271,1452294000.00,Data write: 01
1272,1452515000.00,ACK
1273,1452565000.00,Data write: 31
1274,1452791000.00,ACK
1275,1452841000.00,Stop
1276,1462260000.00,Start
1277,1462281000.00,Address write: A0
1278,1462466000.00,Write
1279,1462502000.00,ACK
1280,1462552000.00,Data write: 05
1281,1462778000.00,ACK
1282,1462828000.00,Start repeat
1283,1462849000.00,Address read: A1
1284,1463034000.00,Read
1285,1463070000.00,ACK
1286,1463121000.00,Data read: B7
1287,1463365000.00,ACK
1288,1463401000.00,Data read: C4
1289,1463638000.00,ACK
1290,1463674000.00,Data read: F6
1291,1463906000.00,NACK
1292,1463945000.00,Stop
1293,1473248000.00,Start
1294,1473269000.00,Address write: A0
1295,1473454000.00,Write
1296,1473490000.00,ACK
1297,1473540000.00,Data write: 05
1298,1473766000.00,ACK
1299,1473816000.00,Start repeat
1300,1473837000.00,Address read: A1
1301,1474022000.00,Read
1302,1474058000.00,ACK
1303,1474110000.00,Data read: B7
1304,1474354000.00,ACK
1305,1474389000.00,Data read: C4
1306,1474626000.00,ACK
1307,1474662000.00,Data read: F6
1308,1474894000.00,NACK
1309,1474933000.00,Stop
1310,1484237000.00,Start
1311,1484258000.00,Address write: A0
1312,1484444000.00,Write
1313,1484479000.00,ACK
1314,1484530000.00,Data write: 05
1315,1484756000.00,ACK
1316,1484806000.00,Start repeat
1317,1484826000.00,Address read: A1
1318,1485012000.00,Read
1319,1485047000.00,ACK
1320,1485099000.00,Data read: 8A
1321,1485343000.00,ACK
1322,1485379000.00,Data read: D6
1323,1485616000.00,ACK
1324,1485652000.00,Data read: 29
1325,1485883000.00,NACK
1326,1485923000.00,Stop
1327,1495226000.00,Start
1328,1495247000.00,Address write: A0
1329,1495432000.00,Write
1330,1495468000.00,ACK
1331,1495518000.00,Data write: 05
1332,1495744000.00,ACK
1333,1495794000.00,Start repeat
1334,1495815000.00,Address read: A1
1335,1496000000.00,Read
1336,1496036000.00,ACK
1337,1496087000.00,Data read: 8A
1338,1496331000.00,ACK
1339,1496367000.00,Data read: CC
1340,1496604000.00,ACK
1341,1496640000.00,Data read: 0B
1342,1496871000.00,NACK
1343,1496911000.00,Stop
1344,1506208000.00,Start
1345,1506229000.00,Address write: A0
1346,1506414000.00,Write
1347,1506450000.00,ACK
1348,1506500000.00,Data write: 05
1349,1506726000.00,ACK
1350,1506776000.00,Start repeat
1351,1506797000.00,Address read: A1
1352,1506982000.00,Read
1353,1507018000.00,ACK
1354,1507070000.00,Data read: 8A
1355,1507313000.00,ACK
1356,1507349000.00,Data read: C7
1357,1507586000.00,ACK
1358,1507622000.00,Data read: C3
1359,1507854000.00,NACK
1360,1507893000.00,Stop
1361,1517197000.00,Start
1362,1517217000.00,Address write: A0
1363,1517403000.00,Write
1364,1517438000.00,ACK
1365,1517489000.00,Data write: 05
1366,1517715000.00,ACK
1367,1517765000.00,Start repeat
1368,1517785000.00,Address read: A1
1369,1517971000.00,Read
1370,1518007000.00,ACK
1371,1518058000.00,Data read: 8A
1372,1518302000.00,ACK
1373,1518338000.00,Data read: C7
1374,1518575000.00,ACK
1375,1518611000.00,Data read: 6B
1376,1518843000.00,NACK
1377,1518882000.00,Stop
1378,1528185000.00,Start
1379,1528205000.00,Address write: A0
1380,1528391000.00,Write
1381,1528426000.00,ACK
1382,1528477000.00,Data write: 05
1383,1528703000.00,ACK
1384,1528753000.00,Start repeat
1385,1528773000.00,Address read: A1
1386,1528959000.00,Read
1387,1528995000.00,ACK
1388,1529046000.00,Data read: 8A
1389,1529290000.00,ACK
1390,1529326000.00,Data read: C4
1391,1529563000.00,ACK
1392,1529599000.00,Data read: 3D
1393,1529830000.00,NACK
1394,1529870000.00,Stop
1395,1539173000.00,Start
1396,1539194000.00,Address write: A0
1397,1539379000.00,Write
1398,1539415000.00,ACK
1399,1539465000.00,Data write: 05
1400,1539692000.00,ACK
1401,1539741000.00,Start repeat
1402,1539762000.00,Address read: A1
1403,1539948000.00,Read
1404,1539983000.00,ACK
1405,1540035000.00,Data read: 8A
1406,1540279000.00,ACK
1407,1540315000.00,Data read: C4
1408,1540552000.00,ACK
1409,1540588000.00,Data read: 0F
1410,1540819000.00,NACK
1411,1540859000.00,Stop
1412,1550162000.00,Start
1413,1550182000.00,Address write: A0
1414,1550368000.00,Write
1415,1550403000.00,ACK
1416,1550454000.00,Data write: 05
1417,1550680000.00,ACK
1418,1550730000.00,Start repeat
1419,1550750000.00,Address read: A1
1420,1550936000.00,Read
1421,1550971000.00,ACK
1422,1551023000.00,Data read: 8A
1423,1551267000.00,ACK
1424,1551303000.00,Data read: C4
1425,1551540000.00,ACK
1426,1551576000.00,Data read: 9F
1427,1551807000.00,NACK
1428,1551847000.00,Stop
1429,1561151000.00,Start
1430,1561171000.00,Address write: A0
1431,1561357000.00,Write
1432,1561392000.00,ACK
1433,1561443000.00,Data write: 05
1434,1561669000.00,ACK
1435,1561719000.00,Start repeat
1436,1561739000.00,Address read: A1
1437,1561925000.00,Read
1438,1561960000.00,ACK
1439,1562012000.00,Data read: 8A
1440,1562256000.00,ACK
1441,1562292000.00,Data read: C1
1442,1562528000.00,ACK
1443,1562564000.00,Data read: 69
1444,1562796000.00,NACK
1445,1562835000.00,Stop
1446,1572137000.00,Start
1447,1572158000.00,Address write: A0
1448,1572343000.00,Write
1449,1572379000.00,ACK
1450,1572429000.00,Data write: 05
1451,1572655000.00,ACK
1452,1572705000.00,Start repeat
1453,1572726000.00,Address read: A1
1454,1572912000.00,Read
1455,1572947000.00,ACK
1456,1572999000.00,Data read: 8A
1457,1573243000.00,ACK
1458,1573279000.00,Data read: C2
1459,1573516000.00,ACK
1460,1573552000.00,Data read: 5F
1461,1573783000.00,NACK
1462,1573823000.00,Stop
1463,1583128000.00,Start
1464,1583149000.00,Address write: A0
1465,1583335000.00,Write
1466,1583370000.00,ACK
1467,1583420000.00,Data write: 05
1468,1583647000.00,ACK
1469,1583697000.00,Start repeat
1470,1583717000.00,Address read: A1
1471,1583903000.00,Read
1472,1583938000.00,ACK
1473,1583990000.00,Data read: 8A
1474,1584234000.00,ACK
1475,1584270000.00,Data read: BF
1476,1584507000.00,ACK
1477,1584543000.00,Data read: 57
1478,1584775000.00,NACK
1479,1584814000.00,Stop
1480,1584836000.00,Start
1481,1584857000.00,Address write: A0
1482,1585048000.00,Write
1483,1585084000.00,ACK
1484,1585146000.00,Data write: 01
1485,1585367000.00,ACK
1486,1585417000.00,Data write: 32
1487,1585643000.00,ACK
1488,1585693000.00,Stop
1489,1596115000.00,Start
1490,1596135000.00,Address write: A0
1491,1596321000.00,Write
1492,1596357000.00,ACK
1493,1596407000.00,Data write: 05
1494,1596633000.00,ACK
1495,1596683000.00,Start repeat
1496,1596704000.00,Address read: A1
1497,1596889000.00,Read
1498,1596925000.00,ACK
1499,1596976000.00,Data read: 8A
1500,1597220000.00,ACK
1501,1597256000.00,Data read: BF
1502,1597493000.00,ACK
1503,1597529000.00,Data read: 56
1504,1597761000.00,NACK
1505,1597800000.00,Stop
1506,1607104000.00,Start
1507,1607125000.00,Address write: A0
1508,1607310000.00,Write
1509,1607346000.00,ACK
1510,1607396000.00,Data write: 05
1511,1607622000.00,ACK
1512,1607672000.00,Start repeat
1513,1607693000.00,Address read: A1
1514,1607878000.00,Read
1515,1607914000.00,ACK
1516,1607965000.00,Data read: 8A
1517,1608209000.00,ACK
1518,1608245000.00,Data read: BF
1519,1608482000.00,ACK
1520,1608518000.00,Data read: 56
1521,1608750000.00,NACK
1522,1608789000.00,Stop
1523,1618092000.00,Start
1524,1618113000.00,Address write: A0
1525,1618298000.00,Write
1526,1618334000.00,ACK
1527,1618384000.00,Data write: 05
1528,1618610000.00,ACK
1529,1618660000.00,Start repeat
1530,1618681000.00,Address read: A1
1531,1618866000.00,Read
1532,1618902000.00,ACK
1533,1618953000.00,Data read: E0
1534,1619197000.00,ACK
1535,1619233000.00,Data read: BD
1536,1619470000.00,ACK
1537,1619506000.00,Data read: 91
1538,1619738000.00,NACK
1539,1619777000.00,Stop
1540,1629081000.00,Start
1541,1629102000.00,Address write: A0
1542,1629288000.00,Write
1543,1629323000.00,ACK
1544,1629374000.00,Data write: 05
1545,1629600000.00,ACK
1546,1629650000.00,Start repeat
1547,1629670000.00,Address read: A1
1548,1629856000.00,Read
1549,1629891000.00,ACK
1550,1629943000.00,Data read: E0
1551,1630187000.00,ACK
1552,1630223000.00,Data read: BE
1553,1630460000.00,ACK
1554,1630496000.00,Data read: 17
1555,1630728000.00,NACK
1556,1630767000.00,Stop
1557,1640068000.00,Start
1558,1640089000.00,Address write: A0
1559,1640275000.00,Write
1560,1640310000.00,ACK
1561,1640361000.00,Data write: 05
1562,1640587000.00,ACK
1563,1640637000.00,Start repeat
1564,1640657000.00,Address read: A1
1565,1640843000.00,Read
1566,1640878000.00,ACK
1567,1640930000.00,Data read: E0
1568,1641174000.00,ACK
1569,1641210000.00,Data read: BD
1570,1641447000.00,ACK
1571,1641483000.00,Data read: 5D
1572,1641714000.00,NACK
1573,1641754000.00,Stop
1574,1651057000.00,Start
1575,1651078000.00,Address write: A0
1576,1651264000.00,Write
1577,1651299000.00,ACK
1578,1651349000.00,Data write: 05
1579,1651576000.00,ACK
1580,1651626000.00,Start repeat
1581,1651646000.00,Address read: A1
1582,1651832000.00,Read
1583,1651867000.00,ACK
1584,1651919000.00,Data read: E0
1585,1652163000.00,ACK
1586,1652199000.00,Data read: BD
1587,1652436000.00,ACK
1588,1652472000.00,Data read: 6B
1589,1652703000.00,NACK
1590,1652743000.00,Stop
1591,1662045000.00,Start
1592,1662066000.00,Address write: A0
1593,1662251000.00,Write
1594,1662287000.00,ACK
1595,1662337000.00,Data write: 05
1596,1662563000.00,ACK
1597,1662613000.00,Start repeat
1598,1662634000.00,Address read: A1
1599,1662820000.00,Read
1600,1662855000.00,ACK
1601,1662907000.00,Data read: E0
1602,1663151000.00,ACK
1603,1663187000.00,Data read: C0
1604,1663423000.00,ACK
1605,1663459000.00,Data read: 21
1606,1663691000.00,NACK
1607,1663731000.00,Stop
1608,1673033000.00,Start
1609,1673053000.00,Address write: A0
1610,1673239000.00,Write
1611,1673274000.00,ACK
1612,1673325000.00,Data write: 05
1613,1673551000.00,ACK
1614,1673601000.00,Start repeat
1615,1673621000.00,Address read: A1
1616,1673807000.00,Read
1617,1673842000.00,ACK
1618,1673894000.00,Data read: E0
1619,1674138000.00,ACK
1620,1674173000.00,Data read: C4
1621,1674410000.00,ACK
1622,1674446000.00,Data read: 8F
1623,1674678000.00,NACK
1624,1674717000.00,Stop
1625,1684016000.00,Start
1626,1684037000.00,Address write: A0
1627,1684222000.00,Write
1628,1684258000.00,ACK
1629,1684308000.00,Data write: 05
1630,1684534000.00,ACK
1631,1684584000.00,Start repeat
1632,1684605000.00,Address read: A1
1633,1684791000.00,Read
1634,1684826000.00,ACK
1635,1684878000.00,Data read: E0
1636,1685122000.00,ACK
1637,1685157000.00,Data read: C4
1638,1685394000.00,ACK
1639,1685430000.00,Data read: C1
1640,1685662000.00,NACK
1641,1685701000.00,Stop
1642,1695005000.00,Start
1643,1695026000.00,Address write: A0
1644,1695211000.00,Write
1645,1695247000.00,ACK
1646,1695297000.00,Data write: 05
1647,1695523000.00,ACK
1648,1695573000.00,Start repeat
1649,1695594000.00,Address read: A1
1650,1695779000.00,Read
1651,1695815000.00,ACK
1652,1695866000.00,Data read: E0
1653,1696110000.00,ACK
1654,1696146000.00,Data read: C8
1655,1696383000.00,ACK
1656,1696419000.00,Data read: 1B
1657,1696650000.00,NACK
1658,1696690000.00,Stop
1659,1705992000.00,Start
1660,1706013000.00,Address write: A0
1661,1706198000.00,Write
1662,1706234000.00,ACK
1663,1706284000.00,Data write: 05
1664,1706510000.00,ACK
1665,1706560000.00,Start repeat
1666,1706581000.00,Address read: A1
1667,1706767000.00,Read
1668,1706802000.00,ACK
1669,1706854000.00,Data read: E0
1670,1707098000.00,ACK
1671,1707134000.00,Data read: C8
1672,1707370000.00,ACK
1673,1707406000.00,Data read: 23
1674,1707638000.00,NACK
1675,1707678000.00,Stop
1676,1716979000.00,Start
1677,1716999000.00,Address write: A0
1678,1717185000.00,Write
1679,1717220000.00,ACK
1680,1717271000.00,Data write: 05
1681,1717497000.00,ACK
1682,1717547000.00,Start repeat
1683,1717567000.00,Address read: A1
1684,1717753000.00,Read
1685,1717789000.00,ACK
1686,1717840000.00,Data read: E0
1687,1718084000.00,ACK
1688,1718120000.00,Data read: CA
1689,1718357000.00,ACK
1690,1718393000.00,Data read: 19
1691,1718625000.00,NACK
1692,1718664000.00,Stop
1693,1718686000.00,Start
1694,1718707000.00,Address write: A0
1695,1718898000.00,Write
1696,1718934000.00,ACK
1697,1718996000.00,Data write: 01
1698,1719217000.00,ACK
1699,1719267000.00,Data write: 33
1700,1719493000.00,ACK
1701,1719544000.00,Stop
1702,1728965000.00,Start
1703,1728985000.00,Address write: A0
1704,1729171000.00,Write
1705,1729206000.00,ACK
1706,1729257000.00,Data write: 05
1707,1729483000.00,ACK
1708,1729532000.00,Start repeat
1709,1729553000.00,Address read: A1
1710,1729739000.00,Read
1711,1729774000.00,ACK
1712,1729826000.00,Data read: E0
1713,1730069000.00,ACK
1714,1730105000.00,Data read: CA
1715,1730342000.00,ACK
1716,1730378000.00,Data read: 18
1717,1730609000.00,NACK
1718,1730649000.00,Stop
1719,1739951000.00,Start
1720,1739972000.00,Address write: A0
1721,1740157000.00,Write
1722,1740193000.00,ACK
1723,1740243000.00,Data write: 05
1724,1740469000.00,ACK
1725,1740519000.00,Start repeat
1726,1740540000.00,Address read: A1
1727,1740726000.00,Read
1728,1740761000.00,ACK
1729,1740813000.00,Data read: E0
1730,1741057000.00,ACK
1731,1741093000.00,Data read: CA
1732,1741329000.00,ACK
1733,1741365000.00,Data read: 18
1734,1741597000.00,NACK
1735,1741637000.00,Stop
1736,1750937000.00,Start
1737,1750958000.00,Address write: A0
1738,1751144000.00,Write
1739,1751179000.00,ACK
1740,1751229000.00,Data write: 05
1741,1751456000.00,ACK
1742,1751505000.00,Start repeat
1743,1751526000.00,Address read: A1
1744,1751712000.00,Read
1745,1751747000.00,ACK
1746,1751799000.00,Data read: A5
1747,1752043000.00,ACK
1748,1752079000.00,Data read: A6
1749,1752315000.00,ACK
1750,1752351000.00,Data read: 3F
1751,1752583000.00,NACK
1752,1752623000.00,Stop
1753,1761923000.00,Start
1754,1761943000.00,Address write: A0
1755,1762129000.00,Write
1756,1762165000.00,ACK
1757,1762215000.00,Data write: 05
1758,1762441000.00,ACK
1759,1762491000.00,Start repeat
1760,1762512000.00,Address read: A1
1761,1762697000.00,Read
1762,1762733000.00,ACK
1763,1762785000.00,Data read: A4
1764,1763028000.00,ACK
1765,1763064000.00,Data read: 77
1766,1763301000.00,ACK
1767,1763337000.00,Data read: 51
1768,1763569000.00,NACK
1769,1763608000.00,Stop
1770,1772912000.00,Start
1771,1772932000.00,Address write: A0
1772,1773118000.00,Write
1773,1773153000.00,ACK
1774,1773204000.00,Data write: 05
1775,1773430000.00,ACK
1776,1773480000.00,Start repeat
1777,1773500000.00,Address read: A1
1778,1773686000.00,Read
1779,1773722000.00,ACK
1780,1773773000.00,Data read: A4
1781,1774017000.00,ACK
1782,1774053000.00,Data read: 00
1783,1774290000.00,ACK
1784,1774326000.00,Data read: BD
1785,1774558000.00,NACK
1786,1774597000.00,Stop
1787,1783901000.00,Start
1788,1783922000.00,Address write: A0
1789,1784107000.00,Write
1790,1784143000.00,ACK
1791,1784193000.00,Data write: 05
1792,1784419000.00,ACK
1793,1784469000.00,Start repeat
1794,1784490000.00,Address read: A1
1795,1784675000.00,Read
1796,1784711000.00,ACK
1797,1784762000.00,Data read: A3
1798,1785006000.00,ACK
1799,1785042000.00,Data read: 85
1800,1785279000.00,ACK
1801,1785315000.00,Data read: 95
1802,1785547000.00,NACK
1803,1785586000.00,Stop
1804,1794889000.00,Start
1805,1794909000.00,Address write: A0
1806,1795095000.00,Write
1807,1795131000.00,ACK
1808,1795181000.00,Data write: 05
1809,1795407000.00,ACK
1810,1795457000.00,Start repeat
1811,1795478000.00,Address read: A1
1812,1795663000.00,Read
1813,1795699000.00,ACK
1814,1795750000.00,Data read: A2
1815,1795994000.00,ACK
1816,1796030000.00,Data read: C5
1817,1796267000.00,ACK
1818,1796303000.00,Data read: 23
1819,1796535000.00,NACK
1820,1796574000.00,Stop
1821,1805875000.00,Start
1822,1805896000.00,Address write: A0
1823,1806082000.00,Write
1824,1806117000.00,ACK
1825,1806168000.00,Data write: 05
1826,1806394000.00,ACK
1827,1806444000.00,Start repeat
1828,1806464000.00,Address read: A1
1829,1806650000.00,Read
1830,1806685000.00,ACK
1831,1806737000.00,Data read: A2
1832,1806981000.00,ACK
1833,1807017000.00,Data read: 6E
1834,1807254000.00,ACK
1835,1807289000.00,Data read: BD
1836,1807521000.00,NACK
1837,1807560000.00,Stop
1838,1816859000.00,Start
1839,1816880000.00,Address write: A0
1840,1817065000.00,Write
1841,1817101000.00,ACK
1842,1817151000.00,Data write: 05
1843,1817378000.00,ACK
1844,1817428000.00,Start repeat
1845,1817448000.00,Address read: A1
1846,1817634000.00,Read
1847,1817669000.00,ACK
1848,1817721000.00,Data read: A2
1849,1817965000.00,ACK
1850,1818001000.00,Data read: 29
1851,1818238000.00,ACK
1852,1818274000.00,Data read: 81
1853,1818505000.00,NACK
1854,1818545000.00,Stop
1855,1827849000.00,Start
1856,1827870000.00,Address write: A0
1857,1828055000.00,Write
1858,1828091000.00,ACK
1859,1828141000.00,Data write: 05
1860,1828367000.00,ACK
1861,1828417000.00,Start repeat
1862,1828438000.00,Address read: A1
1863,1828624000.00,Read
1864,1828659000.00,ACK
1865,1828711000.00,Data read: A1
1866,1828955000.00,ACK
1867,1828991000.00,Data read: DC
1868,1829228000.00,ACK
1869,1829263000.00,Data read: 8F
1870,1829495000.00,NACK
1871,1829535000.00,Stop
1872,1838836000.00,Start
1873,1838857000.00,Address write: A0
1874,1839043000.00,Write
1875,1839078000.00,ACK
1876,1839129000.00,Data write: 05
1877,1839355000.00,ACK
1878,1839405000.00,Start repeat
1879,1839425000.00,Address read: A1
1880,1839611000.00,Read
1881,1839646000.00,ACK
1882,1839698000.00,Data read: A1
1883,1839942000.00,ACK
1884,1839978000.00,Data read: 6A
1885,1840215000.00,ACK
1886,1840250000.00,Data read: 49
1887,1840482000.00,NACK
1888,1840522000.00,Stop
1889,1849825000.00,Start
1890,1849846000.00,Address write: A0
1891,1850032000.00,Write
1892,1850067000.00,ACK
1893,1850117000.00,Data write: 05
1894,1850344000.00,ACK
1895,1850393000.00,Start repeat
1896,1850414000.00,Address read: A1
1897,1850600000.00,Read
1898,1850635000.00,ACK
1899,1850687000.00,Data read: A1
1900,1850931000.00,ACK
1901,1850966000.00,Data read: 3C
1902,1851203000.00,ACK
1903,1851239000.00,Data read: 51
1904,1851471000.00,NACK
1905,1851510000.00,Stop
1906,1851532000.00,Start
1907,1851553000.00,Address write: A0
1908,1851744000.00,Write
1909,1851780000.00,ACK
1910,1851842000.00,Data write: 01
1911,1852063000.00,ACK
1912,1852113000.00,Data write: 31
1913,1852340000.00,ACK
1914,1852390000.00,Stop
1915,1861814000.00,Start
1916,1861835000.00,Address write: A0
1917,1862021000.00,Write
1918,1862056000.00,ACK
1919,1862107000.00,Data write: 05
1920,1862333000.00,ACK
1921,1862383000.00,Start repeat
1922,1862403000.00,Address read: A1
1923,1862589000.00,Read
1924,1862625000.00,ACK
1925,1862676000.00,Data read: A1
1926,1862920000.00,ACK
1927,1862956000.00,Data read: 3C
1928,1863193000.00,ACK
1929,1863229000.00,Data read: 50
1930,1863461000.00,NACK
1931,1863500000.00,Stop
1932,1872801000.00,Start
1933,1872822000.00,Address write: A0
1934,1873008000.00,Write
1935,1873043000.00,ACK
1936,1873093000.00,Data write: 05
1937,1873319000.00,ACK
1938,1873369000.00,Start repeat
1939,1873390000.00,Address read: A1
1940,1873576000.00,Read
1941,1873611000.00,ACK
1942,1873663000.00,Data read: A1
1943,1873906000.00,ACK
1944,1873942000.00,Data read: 3C
1945,1874179000.00,ACK
1946,1874215000.00,Data read: 50
1947,1874447000.00,NACK
1948,1874486000.00,Stop
1949,1883790000.00,Start
1950,1883811000.00,Address write: A0
1951,1883996000.00,Write
1952,1884032000.00,ACK
1953,1884082000.00,Data write: 05
1954,1884309000.00,ACK
1955,1884358000.00,Start repeat
1956,1884379000.00,Address read: A1
1957,1884565000.00,Read
1958,1884600000.00,ACK
1959,1884652000.00,Data read: 8A
1960,1884896000.00,ACK
1961,1884932000.00,Data read: D5
1962,1885169000.00,ACK
1963,1885205000.00,Data read: A1
1964,1885436000.00,NACK
1965,1885476000.00,Stop
1966,1894777000.00,Start
1967,1894798000.00,Address write: A0
1968,1894983000.00,Write
1969,1895019000.00,ACK
1970,1895069000.00,Data write: 05
1971,1895295000.00,ACK
1972,1895345000.00,Start repeat
1973,1895366000.00,Address read: A1
1974,1895552000.00,Read
1975,1895587000.00,ACK
1976,1895639000.00,Data read: 8A
1977,1895883000.00,ACK
1978,1895919000.00,Data read: C8
1979,1896156000.00,ACK
1980,1896191000.00,Data read: 9B
1981,1896423000.00,NACK
1982,1896463000.00,Stop
1983,1905767000.00,Start
1984,1905787000.00,Address write: A0
1985,1905973000.00,Write
1986,1906008000.00,ACK
1987,1906059000.00,Data write: 05
1988,1906285000.00,ACK
1989,1906335000.00,Start repeat
1990,1906356000.00,Address read: A1
1991,1906541000.00,Read
1992,1906577000.00,ACK
1993,1906628000.00,Data read: 8A
1994,1906872000.00,ACK
1995,1906908000.00,Data read: C7
1996,1907145000.00,ACK
1997,1907181000.00,Data read: 5B
1998,1907413000.00,NACK
1999,1907452000.00,Stop
2000,1916759000.00,Start
2001,1916780000.00,Address write: A0
2002,1916965000.00,Write
2003,1917001000.00,ACK
2004,1917051000.00,Data write: 05
2005,1917277000.00,ACK
2006,1917327000.00,Start repeat
2007,1917348000.00,Address read: A1
2008,1917534000.00,Read
2009,1917569000.00,ACK
2010,1917621000.00,Data read: 8A
2011,1917865000.00,ACK
2012,1917901000.00,Data read: C3
2013,1918137000.00,ACK
2014,1918173000.00,Data read: CB
2015,1918405000.00,NACK
2016,1918445000.00,Stop
2017,1927749000.00,Start
2018,1927769000.00,Address write: A0
2019,1927955000.00,Write
2020,1927990000.00,ACK
2021,1928041000.00,Data write: 05
2022,1928267000.00,ACK
2023,1928317000.00,Start repeat
2024,1928337000.00,Address read: A1
2025,1928523000.00,Read
2026,1928558000.00,ACK
2027,1928610000.00,Data read: 8A
2028,1928854000.00,ACK
2029,1928890000.00,Data read: C3
2030,1929127000.00,ACK
2031,1929163000.00,Data read: EB
2032,1929395000.00,NACK
2033,1929434000.00,Stop
2034,1938740000.00,Start
2035,1938760000.00,Address write: A0
2036,1938946000.00,Write
2037,1938981000.00,ACK
2038,1939032000.00,Data write: 05
2039,1939258000.00,ACK
2040,1939308000.00,Start repeat
2041,1939328000.00,Address read: A1
2042,1939514000.00,Read
2043,1939549000.00,ACK
2044,1939601000.00,Data read: 8A
2045,1939845000.00,ACK
2046,1939881000.00,Data read: C0
2047,1940117000.00,ACK
2048,1940153000.00,Data read: 9D
2049,1940385000.00,NACK
2050,1940424000.00,Stop
2051,1949727000.00,Start
2052,1949747000.00,Address write: A0
2053,1949933000.00,Write
2054,1949969000.00,ACK
2055,1950019000.00,Data write: 05
2056,1950245000.00,ACK
2057,1950295000.00,Start repeat
2058,1950316000.00,Address read: A1
2059,1950501000.00,Read
2060,1950537000.00,ACK
2061,1950589000.00,Data read: 8A
2062,1950832000.00,ACK
2063,1950868000.00,Data read: C1
2064,1951105000.00,ACK
2065,1951141000.00,Data read: 0B
2066,1951373000.00,NACK
2067,1951412000.00,Stop
2068,1960717000.00,Start
2069,1960738000.00,Address write: A0
2070,1960923000.00,Write
2071,1960959000.00,ACK
2072,1961009000.00,Data write: 05
2073,1961236000.00,ACK
2074,1961285000.00,Start repeat
2075,1961306000.00,Address read: A1
2076,1961492000.00,Read
2077,1961527000.00,ACK
2078,1961579000.00,Data read: 8A
2079,1961823000.00,ACK
2080,1961859000.00,Data read: C1
2081,1962096000.00,ACK
2082,1962132000.00,Data read: 5F
2083,1962363000.00,NACK
2084,1962403000.00,Stop
2085,1971706000.00,Start
2086,1971727000.00,Address write: A0
2087,1971912000.00,Write
2088,1971948000.00,ACK
2089,1971998000.00,Data write: 05
2090,1972224000.00,ACK
2091,1972274000.00,Start repeat
2092,1972295000.00,Address read: A1
2093,1972480000.00,Read
2094,1972516000.00,ACK
2095,1972568000.00,Data read: 8A
2096,1972812000.00,ACK
2097,1972847000.00,Data read: BF
2098,1973084000.00,ACK
2099,1973120000.00,Data read: 07
2100,1973352000.00,NACK
2101,1973392000.00,Stop
2102,1982692000.00,Start
2103,1982713000.00,Address write: A0
2104,1982898000.00,Write
2105,1982934000.00,ACK
2106,1982984000.00,Data write: 05
2107,1983211000.00,ACK
2108,1983260000.00,Start repeat
2109,1983281000.00,Address read: A1
2110,1983467000.00,Read
2111,1983502000.00,ACK
2112,1983554000.00,Data read: 8A
2113,1983798000.00,ACK
2114,1983834000.00,Data read: BF
2115,1984071000.00,ACK
2116,1984107000.00,Data read: 6D
2117,1984338000.00,NACK
2118,1984378000.00,Stop
2119,1984400000.00,Start
2120,1984421000.00,Address write: A0
2121,1984611000.00,Write
2122,1984648000.00,ACK
2123,1984709000.00,Data write: 01
2124,1984930000.00,ACK
2125,1984981000.00,Data write: 32
2126,1985207000.00,ACK
2127,1985257000.00,Stop
2128,1995678000.00,Start
2129,1995698000.00,Address write: A0
2130,1995884000.00,Write
2131,1995919000.00,ACK
2132,1995970000.00,Data write: 05
2133,1996196000.00,ACK
2134,1996246000.00,Start repeat
2135,1996266000.00,Address read: A1
2136,1996452000.00,Read
2137,1996487000.00,ACK
2138,1996539000.00,Data read: 8A
2139,1996783000.00,ACK
2140,1996819000.00,Data read: BF
2141,1997056000.00,ACK
2142,1997092000.00,Data read: 6C
2143,1997323000.00,NACK
2144,1997363000.00,Stop
2145,2006667000.00,Start
2146,2006688000.00,Address write: A0
2147,2006873000.00,Write
2148,2006909000.00,ACK
2149,2006959000.00,Data write: 05
2150,2007185000.00,ACK
2151,2007235000.00,Start repeat
2152,2007256000.00,Address read: A1
2153,2007442000.00,Read
2154,2007477000.00,ACK
2155,2007529000.00,Data read: 8A
2156,2007773000.00,ACK
2157,2007808000.00,Data read: BF
2158,2008046000.00,ACK
2159,2008081000.00,Data read: 6C
2160,2008313000.00,NACK
2161,2008353000.00,Stop
2162,2017655000.00,Start
2163,2017675000.00,Address write: A0
2164,2017861000.00,Write
2165,2017896000.00,ACK
2166,2017947000.00,Data write: 05
2167,2018173000.00,ACK
2168,2018223000.00,Start repeat
2169,2018244000.00,Address read: A1
2170,2018429000.00,Read
2171,2018465000.00,ACK
2172,2018516000.00,Data read: E0
2173,2018760000.00,ACK
2174,2018796000.00,Data read: CC
2175,2019033000.00,ACK
2176,2019069000.00,Data read: 13
2177,2019300000.00,NACK
2178,2019340000.00,Stop
2179,2028643000.00,Start
2180,2028664000.00,Address write: A0
2181,2028849000.00,Write
2182,2028885000.00,ACK
2183,2028935000.00,Data write: 05
2184,2029161000.00,ACK
2185,2029211000.00,Start repeat
2186,2029232000.00,Address read: A1
2187,2029417000.00,Read
2188,2029453000.00,ACK
2189,2029504000.00,Data read: E0
2190,2029748000.00,ACK
2191,2029784000.00,Data read: CB
2192,2030021000.00,ACK
2193,2030057000.00,Data read: 3D
2194,2030289000.00,NACK
2195,2030328000.00,Stop
2196,2039628000.00,Start
2197,2039649000.00,Address write: A0
2198,2039834000.00,Write
2199,2039869000.00,ACK
2200,2039920000.00,Data write: 05
2201,2040146000.00,ACK
2202,2040196000.00,Start repeat
2203,2040216000.00,Address read: A1
2204,2040402000.00,Read
2205,2040437000.00,ACK
2206,2040489000.00,Data read: E0
2207,2040733000.00,ACK
2208,2040769000.00,Data read: C9
2209,2041005000.00,ACK
2210,2041041000.00,Data read: D7
2211,2041273000.00,NACK
2212,2041312000.00,Stop
2213,2050614000.00,Start
2214,2050634000.00,Address write: A0
2215,2050820000.00,Write
2216,2050855000.00,ACK
2217,2050906000.00,Data write: 05
2218,2051132000.00,ACK
2219,2051182000.00,Start repeat
2220,2051203000.00,Address read: A1
2221,2051388000.00,Read
2222,2051424000.00,ACK
2223,2051475000.00,Data read: E0
2224,2051719000.00,ACK
2225,2051755000.00,Data read: C6
2226,2051992000.00,ACK
2227,2052028000.00,Data read: E7
2228,2052260000.00,NACK
2229,2052299000.00,Stop
2230,2061602000.00,Start
2231,2061622000.00,Address write: A0
2232,2061808000.00,Write
2233,2061843000.00,ACK
2234,2061894000.00,Data write: 05
2235,2062120000.00,ACK
2236,2062170000.00,Start repeat
2237,2062191000.00,Address read: A1
2238,2062376000.00,Read
2239,2062412000.00,ACK
2240,2062463000.00,Data read: E0
2241,2062707000.00,ACK
2242,2062743000.00,Data read: C6
2243,2062980000.00,ACK
2244,2063016000.00,Data read: 37
2245,2063248000.00,NACK
2246,2063287000.00,Stop
2247,2072591000.00,Start
2248,2072611000.00,Address write: A0
2249,2072797000.00,Write
2250,2072832000.00,ACK
2251,2072883000.00,Data write: 05
2252,2073109000.00,ACK
2253,2073159000.00,Start repeat
2254,2073179000.00,Address read: A1
2255,2073365000.00,Read
2256,2073401000.00,ACK
2257,2073452000.00,Data read: E0
2258,2073696000.00,ACK
2259,2073732000.00,Data read: CC
2260,2073969000.00,ACK
2261,2074005000.00,Data read: 0F
2262,2074237000.00,NACK
2263,2074276000.00,Stop
2264,2083579000.00,Start
2265,2083600000.00,Address write: A0
2266,2083786000.00,Write
2267,2083821000.00,ACK
2268,2083871000.00,Data write: 05
2269,2084098000.00,ACK
2270,2084148000.00,Start repeat
2271,2084168000.00,Address read: A1
2272,2084354000.00,Read
2273,2084389000.00,ACK
2274,2084441000.00,Data read: E0
2275,2084685000.00,ACK
2276,2084721000.00,Data read: CB
2277,2084958000.00,ACK
2278,2084994000.00,Data read: A5
2279,2085225000.00,NACK
2280,2085265000.00,Stop
2281,2094569000.00,Start
2282,2094590000.00,Address write: A0
2283,2094775000.00,Write
2284,2094811000.00,ACK
2285,2094861000.00,Data write: 05
2286,2095087000.00,ACK
2287,2095137000.00,Start repeat
2288,2095158000.00,Address read: A1
2289,2095343000.00,Read
2290,2095379000.00,ACK
2291,2095430000.00,Data read: E0
2292,2095674000.00,ACK
2293,2095710000.00,Data read: CF
2294,2095947000.00,ACK
2295,2095983000.00,Data read: A1
2296,2096214000.00,NACK
2297,2096254000.00,Stop
2298,2105554000.00,Start
2299,2105575000.00,Address write: A0
2300,2105760000.00,Write
2301,2105796000.00,ACK
2302,2105846000.00,Data write: 05
2303,2106072000.00,ACK
2304,2106122000.00,Start repeat
2305,2106143000.00,Address read: A1
2306,2106329000.00,Read
2307,2106364000.00,ACK
2308,2106416000.00,Data read: E0
2309,2106660000.00,ACK
2310,2106696000.00,Data read: D0
2311,2106932000.00,ACK
2312,2106968000.00,Data read: 03
2313,2107200000.00,NACK
2314,2107240000.00,Stop
2315,2116542000.00,Start
2316,2116563000.00,Address write: A0
2317,2116748000.00,Write
2318,2116784000.00,ACK
2319,2116834000.00,Data write: 05
2320,2117060000.00,ACK
2321,2117110000.00,Start repeat
2322,2117131000.00,Address read: A1
2323,2117316000.00,Read
2324,2117352000.00,ACK
2325,2117404000.00,Data read: E0
2326,2117647000.00,ACK
2327,2117683000.00,Data read: D0
2328,2117920000.00,ACK
2329,2117956000.00,Data read: DF
2330,2118188000.00,NACK
2331,2118227000.00,Stop
2332,2118249000.00,Start
2333,2118270000.00,Address write: A0
2334,2118461000.00,Write
2335,2118497000.00,ACK
2336,2118559000.00,Data write: 01
2337,2118780000.00,ACK
2338,2118830000.00,Data write: 33
2339,2119056000.00,ACK
2340,2119107000.00,Stop
2341,2128531000.00,Start
2342,2128551000.00,Address write: A0
2343,2128737000.00,Write
2344,2128772000.00,ACK
2345,2128823000.00,Data write: 05
2346,2129049000.00,ACK
2347,2129099000.00,Start repeat
2348,2129120000.00,Address read: A1
2349,2129305000.00,Read
2350,2129341000.00,ACK
2351,2129392000.00,Data read: E0
2352,2129636000.00,ACK
2353,2129672000.00,Data read: D0
2354,2129909000.00,ACK
2355,2129945000.00,Data read: DE
2356,2130177000.00,NACK
2357,2130216000.00,Stop
2358,2139519000.00,Start
2359,2139539000.00,Address write: A0
2360,2139725000.00,Write
2361,2139760000.00,ACK
2362,2139811000.00,Data write: 05
2363,2140037000.00,ACK
2364,2140087000.00,Start repeat
2365,2140108000.00,Address read: A1
2366,2140293000.00,Read
2367,2140329000.00,ACK
2368,2140380000.00,Data read: E0
2369,2140624000.00,ACK
2370,2140660000.00,Data read: D0
2371,2140897000.00,ACK
2372,2140933000.00,Data read: DE
2373,2141165000.00,NACK
2374,2141204000.00,Stop
2375,2150508000.00,Start
2376,2150528000.00,Address write: A0
2377,2150714000.00,Write
2378,2150749000.00,ACK
2379,2150800000.00,Data write: 05
2380,2151026000.00,ACK
2381,2151076000.00,Start repeat
2382,2151096000.00,Address read: A1
2383,2151282000.00,Read
2384,2151318000.00,ACK
2385,2151369000.00,Data read: 9F
2386,2151613000.00,ACK
2387,2151649000.00,Data read: 92
2388,2151886000.00,ACK
2389,2151922000.00,Data read: 8F
2390,2152154000.00,NACK
2391,2152193000.00,Stop
2392,2161494000.00,Start
2393,2161514000.00,Address write: A0
2394,2161700000.00,Write
2395,2161735000.00,ACK
2396,2161786000.00,Data write: 05
2397,2162012000.00,ACK
2398,2162062000.00,Start repeat
2399,2162082000.00,Address read: A1
2400,2162268000.00,Read
2401,2162303000.00,ACK
2402,2162355000.00,Data read: 9F
2403,2162599000.00,ACK
2404,2162635000.00,Data read: 8D
2405,2162871000.00,ACK
2406,2162907000.00,Data read: 19
2407,2163139000.00,NACK
2408,2163178000.00,Stop
2409,2172481000.00,Start
2410,2172501000.00,Address write: A0
2411,2172687000.00,Write
2412,2172722000.00,ACK
2413,2172773000.00,Data write: 05
2414,2172999000.00,ACK
2415,2173049000.00,Start repeat
2416,2173070000.00,Address read: A1
2417,2173255000.00,Read
2418,2173291000.00,ACK
2419,2173342000.00,Data read: 9F
2420,2173586000.00,ACK
2421,2173622000.00,Data read: 94
2422,2173859000.00,ACK
2423,2173895000.00,Data read: B5
2424,2174127000.00,NACK
2425,2174166000.00,Stop
2426,2183466000.00,Start
2427,2183487000.00,Address write: A0
2428,2183672000.00,Write
2429,2183708000.00,ACK
2430,2183758000.00,Data write: 05
2431,2183984000.00,ACK
2432,2184034000.00,Start repeat
2433,2184055000.00,Address read: A1
2434,2184240000.00,Read
2435,2184276000.00,ACK
2436,2184328000.00,Data read: 9F
2437,2184571000.00,ACK
2438,2184607000.00,Data read: 8B
2439,2184844000.00,ACK
2440,2184880000.00,Data read: 65
2441,2185112000.00,NACK
2442,2185151000.00,Stop
2443,2194452000.00,Start
2444,2194472000.00,Address write: A0
2445,2194658000.00,Write
2446,2194694000.00,ACK
2447,2194744000.00,Data write: 05
2448,2194970000.00,ACK
2449,2195020000.00,Start repeat
2450,2195041000.00,Address read: A1
2451,2195226000.00,Read
2452,2195262000.00,ACK
2453,2195313000.00,Data read: 9F
2454,2195557000.00,ACK
2455,2195593000.00,Data read: 8D
2456,2195830000.00,ACK
2457,2195866000.00,Data read: F3
2458,2196098000.00,NACK
2459,2196137000.00,Stop
2460,2205439000.00,Start
2461,2205460000.00,Address write: A0
2462,2205645000.00,Write
2463,2205681000.00,ACK
2464,2205731000.00,Data write: 05
2465,2205957000.00,ACK
2466,2206007000.00,Start repeat
2467,2206028000.00,Address read: A1
2468,2206213000.00,Read
2469,2206249000.00,ACK
2470,2206300000.00,Data read: 9F
2471,2206544000.00,ACK
2472,2206580000.00,Data read: 8A
2473,2206817000.00,ACK
2474,2206853000.00,Data read: 35
2475,2207085000.00,NACK
2476,2207124000.00,Stop
2477,2216427000.00,Start
2478,2216448000.00,Address write: A0
2479,2216633000.00,Write
2480,2216669000.00,ACK
2481,2216719000.00,Data write: 05
2482,2216945000.00,ACK
2483,2216995000.00,Start repeat
2484,2217016000.00,Address read: A1
2485,2217201000.00,Read
2486,2217237000.00,ACK
2487,2217288000.00,Data read: 9F
2488,2217532000.00,ACK
2489,2217568000.00,Data read: 8F
2490,2217805000.00,ACK
2491,2217841000.00,Data read: A7
2492,2218072000.00,NACK
2493,2218112000.00,Stop
2494,2236853000.00,Start
2495,2236873000.00,Address write: A0
2496,2237059000.00,Write
2497,2237094000.00,ACK
2498,2237145000.00,Data write: 05
2499,2237372000.00,ACK
2500,2237433000.00,Start repeat
2501,2237454000.00,Address read: A1
2502,2237639000.00,Read
2503,2237675000.00,ACK
2504,2237721000.00,Data read: 9F
2505,2237958000.00,ACK
2506,2237994000.00,Data read: 87
2507,2238226000.00,ACK
2508,2238267000.00,Data read: 09
2509,2238511000.00,NACK
2510,2238550000.00,Stop
2511,2248389000.00,Start
2512,2248410000.00,Address write: A0
2513,2248596000.00,Write
2514,2248631000.00,ACK
2515,2248682000.00,Data write: 05
2516,2248908000.00,ACK
2517,2248958000.00,Start repeat
2518,2248978000.00,Address read: A1
2519,2249164000.00,Read
2520,2249199000.00,ACK
2521,2249251000.00,Data read: 9F
2522,2249495000.00,ACK
2523,2249531000.00,Data read: 8A
2524,2249768000.00,ACK
2525,2249804000.00,Data read: 27
2526,2250035000.00,NACK
2527,2250075000.00,Stop
2528,2259376000.00,Start
2529,2259397000.00,Address write: A0
2530,2259582000.00,Write
2531,2259618000.00,ACK
2532,2259668000.00,Data write: 05
2533,2259894000.00,ACK
2534,2259944000.00,Start repeat
2535,2259965000.00,Address read: A1
2536,2260150000.00,Read
2537,2260186000.00,ACK
2538,2260238000.00,Data read: 9F
2539,2260481000.00,ACK
2540,2260517000.00,Data read: 8B
2541,2260754000.00,ACK
2542,2260790000.00,Data read: 1F
2543,2261022000.00,NACK
2544,2261061000.00,Stop
2545,2261083000.00,Start
2546,2261104000.00,Address write: A0
2547,2261295000.00,Write
2548,2261331000.00,ACK
2549,2261393000.00,Data write: 01
2550,2261614000.00,ACK
2551,2261664000.00,Data write: 31
2552,2261890000.00,ACK
2553,2261940000.00,Stop
2554,2271362000.00,Start
2555,2271382000.00,Address write: A0
2556,2271568000.00,Write
2557,2271603000.00,ACK
2558,2271654000.00,Data write: 05
2559,2271880000.00,ACK
2560,2271930000.00,Start repeat
2561,2271950000.00,Address read: A1
2562,2272136000.00,Read
2563,2272171000.00,ACK
2564,2272223000.00,Data read: 9F
2565,2272467000.00,ACK
2566,2272503000.00,Data read: 8B
2567,2272740000.00,ACK
2568,2272775000.00,Data read: 1E
2569,2273007000.00,NACK
2570,2273047000.00,Stop
2571,2282348000.00,Start
2572,2282369000.00,Address write: A0
2573,2282554000.00,Write
2574,2282590000.00,ACK
2575,2282640000.00,Data write: 05
2576,2282866000.00,ACK
2577,2282916000.00,Start repeat
2578,2282937000.00,Address read: A1
2579,2283122000.00,Read
2580,2283158000.00,ACK
2581,2283210000.00,Data read: 9F
2582,2283454000.00,ACK
2583,2283489000.00,Data read: 8B
2584,2283726000.00,ACK
2585,2283762000.00,Data read: 1E
2586,2283994000.00,NACK
2587,2284034000.00,Stop
2588,2293337000.00,Start
2589,2293358000.00,Address write: A0
2590,2293544000.00,Write
2591,2293579000.00,ACK
2592,2293629000.00,Data write: 05
2593,2293856000.00,ACK
2594,2293906000.00,Start repeat
2595,2293926000.00,Address read: A1
2596,2294112000.00,Read
2597,2294147000.00,ACK
2598,2294199000.00,Data read: 8A
2599,2294443000.00,ACK
2600,2294479000.00,Data read: D3
2601,2294715000.00,ACK
2602,2294751000.00,Data read: 71
2603,2294983000.00,NACK
2604,2295023000.00,Stop
2605,2304324000.00,Start
2606,2304345000.00,Address write: A0
2607,2304530000.00,Write
2608,2304565000.00,ACK
2609,2304616000.00,Data write: 05
2610,2304842000.00,ACK
2611,2304892000.00,Start repeat
2612,2304913000.00,Address read: A1
2613,2305098000.00,Read
2614,2305134000.00,ACK
2615,2305185000.00,Data read: 8A
2616,2305429000.00,ACK
2617,2305465000.00,Data read: C7
2618,2305702000.00,ACK
2619,2305738000.00,Data read: 75
2620,2305969000.00,NACK
2621,2306009000.00,Stop
2622,2315311000.00,Start
2623,2315331000.00,Address write: A0
2624,2315517000.00,Write
2625,2315552000.00,ACK
2626,2315603000.00,Data write: 05
2627,2315829000.00,ACK
2628,2315879000.00,Start repeat
2629,2315899000.00,Address read: A1
2630,2316085000.00,Read
2631,2316120000.00,ACK
2632,2316172000.00,Data read: 8A
2633,2316416000.00,ACK
2634,2316452000.00,Data read: C5
2635,2316688000.00,ACK
2636,2316724000.00,Data read: 5B
2637,2316956000.00,NACK
2638,2316995000.00,Stop
2639,2326299000.00,Start
2640,2326319000.00,Address write: A0
2641,2326505000.00,Write
2642,2326540000.00,ACK
2643,2326591000.00,Data write: 05
2644,2326817000.00,ACK
2645,2326867000.00,Start repeat
2646,2326888000.00,Address read: A1
2647,2327073000.00,Read
2648,2327109000.00,ACK
2649,2327160000.00,Data read: 8A
2650,2327404000.00,ACK
2651,2327440000.00,Data read: C2
2652,2327677000.00,ACK
2653,2327713000.00,Data read: 07
2654,2327944000.00,NACK
2655,2327984000.00,Stop
2656,2337285000.00,Start
2657,2337305000.00,Address write: A0
2658,2337491000.00,Write
2659,2337526000.00,ACK
2660,2337577000.00,Data write: 05
2661,2337803000.00,ACK
2662,2337853000.00,Start repeat
2663,2337873000.00,Address read: A1
2664,2338059000.00,Read
2665,2338094000.00,ACK
2666,2338146000.00,Data read: 8A
2667,2338390000.00,ACK
2668,2338425000.00,Data read: C1
2669,2338662000.00,ACK
2670,2338698000.00,Data read: 97
2671,2338930000.00,NACK
2672,2338969000.00,Stop
2673,2348273000.00,Start
2674,2348293000.00,Address write: A0
2675,2348479000.00,Write
2676,2348514000.00,ACK
2677,2348565000.00,Data write: 05
2678,2348791000.00,ACK
2679,2348841000.00,Start repeat
2680,2348861000.00,Address read: A1
2681,2349047000.00,Read
2682,2349082000.00,ACK
2683,2349134000.00,Data read: 8A
2684,2349378000.00,ACK
2685,2349414000.00,Data read: BE
2686,2349651000.00,ACK
2687,2349686000.00,Data read: DF
2688,2349918000.00,NACK
2689,2349958000.00,Stop
2690,2359260000.00,Start
2691,2359281000.00,Address write: A0
2692,2359466000.00,Write
2693,2359502000.00,ACK
2694,2359552000.00,Data write: 05
2695,2359778000.00,ACK
2696,2359828000.00,Start repeat
2697,2359849000.00,Address read: A1
2698,2360035000.00,Read
2699,2360070000.00,ACK
2700,2360122000.00,Data read: 8A
2701,2360366000.00,ACK
2702,2360402000.00,Data read: C0
2703,2360638000.00,ACK
2704,2360674000.00,Data read: 39
2705,2360906000.00,NACK
2706,2360946000.00,Stop
2707,2370246000.00,Start
2708,2370266000.00,Address write: A0
2709,2370452000.00,Write
2710,2370487000.00,ACK
2711,2370538000.00,Data write: 05
2712,2370764000.00,ACK
2713,2370814000.00,Start repeat
2714,2370834000.00,Address read: A1
2715,2371020000.00,Read
2716,2371055000.00,ACK
2717,2371107000.00,Data read: 8A
2718,2371351000.00,ACK
2719,2371386000.00,Data read: BF
2720,2371623000.00,ACK
2721,2371659000.00,Data read: 5B
2722,2371891000.00,NACK
2723,2371930000.00,Stop
2724,2381229000.00,Start
2725,2381249000.00,Address write: A0
2726,2381435000.00,Write
2727,2381470000.00,ACK
2728,2381521000.00,Data write: 05
2729,2381747000.00,ACK
2730,2381797000.00,Start repeat
2731,2381818000.00,Address read: A1
2732,2382003000.00,Read
2733,2382039000.00,ACK
2734,2382090000.00,Data read: 8A
2735,2382334000.00,ACK
2736,2382370000.00,Data read: BE
2737,2382607000.00,ACK
2738,2382643000.00,Data read: 1B
2739,2382874000.00,NACK
2740,2382914000.00,Stop
2741,2392213000.00,Start
2742,2392234000.00,Address write: A0
2743,2392420000.00,Write
2744,2392455000.00,ACK
2745,2392506000.00,Data write: 05
2746,2392732000.00,ACK
2747,2392782000.00,Start repeat
2748,2392802000.00,Address read: A1
2749,2392988000.00,Read
2750,2393023000.00,ACK
2751,2393075000.00,Data read: 8A
2752,2393319000.00,ACK
2753,2393355000.00,Data read: BD
2754,2393592000.00,ACK
2755,2393628000.00,Data read: 83
2756,2393859000.00,NACK
2757,2393899000.00,Stop
2758,2393921000.00,Start
2759,2393942000.00,Address write: A0
2760,2394132000.00,Write
2761,2394169000.00,ACK
2762,2394231000.00,Data write: 01
2763,2394452000.00,ACK
2764,2394502000.00,Data write: 32
2765,2394728000.00,ACK
2766,2394778000.00,Stop
2767,2405201000.00,Start
2768,2405221000.00,Address write: A0
2769,2405407000.00,Write
2770,2405442000.00,ACK
2771,2405493000.00,Data write: 05
2772,2405719000.00,ACK
2773,2405769000.00,Start repeat
2774,2405789000.00,Address read: A1
2775,2405975000.00,Read
2776,2406010000.00,ACK
2777,2406062000.00,Data read: 8A
2778,2406306000.00,ACK
2779,2406342000.00,Data read: BD
2780,2406578000.00,ACK
2781,2406614000.00,Data read: 82
2782,2406846000.00,NACK
2783,2406885000.00,Stop
2784,2416186000.00,Start
2785,2416207000.00,Address write: A0
2786,2416392000.00,Write
2787,2416428000.00,ACK
2788,2416478000.00,Data write: 05
2789,2416704000.00,ACK
2790,2416754000.00,Start repeat
2791,2416775000.00,Address read: A1
2792,2416960000.00,Read
2793,2416996000.00,ACK
2794,2417048000.00,Data read: 8A
2795,2417291000.00,ACK
2796,2417327000.00,Data read: BD
2797,2417564000.00,ACK
2798,2417600000.00,Data read: 82
2799,2417832000.00,NACK
2800,2417871000.00,Stop
2801,2427175000.00,Start
2802,2427196000.00,Address write: A0
2803,2427381000.00,Write
2804,2427417000.00,ACK
2805,2427467000.00,Data write: 05
2806,2427693000.00,ACK
2807,2427743000.00,Start repeat
2808,2427764000.00,Address read: A1
2809,2427949000.00,Read
2810,2427985000.00,ACK
2811,2428036000.00,Data read: E0
2812,2428280000.00,ACK
2813,2428316000.00,Data read: D1
2814,2428553000.00,ACK
2815,2428589000.00,Data read: 23
2816,2428821000.00,NACK
2817,2428860000.00,Stop
2818,2438160000.00,Start
2819,2438181000.00,Address write: A0
2820,2438367000.00,Write
2821,2438402000.00,ACK
2822,2438453000.00,Data write: 05
2823,2438679000.00,ACK
2824,2438729000.00,Start repeat
2825,2438749000.00,Address read: A1
2826,2438935000.00,Read
2827,2438970000.00,ACK
2828,2439022000.00,Data read: E0
2829,2439266000.00,ACK
2830,2439302000.00,Data read: D1
2831,2439539000.00,ACK
2832,2439575000.00,Data read: 5D
2833,2439806000.00,NACK
2834,2439846000.00,Stop
2835,2449150000.00,Start
2836,2449170000.00,Address write: A0
2837,2449356000.00,Write
2838,2449391000.00,ACK
2839,2449442000.00,Data write: 05
2840,2449668000.00,ACK
2841,2449717000.00,Start repeat
2842,2449738000.00,Address read: A1
2843,2449924000.00,Read
2844,2449959000.00,ACK
2845,2450011000.00,Data read: E0
2846,2450255000.00,ACK
2847,2450290000.00,Data read: D5
2848,2450527000.00,ACK
2849,2450563000.00,Data read: 5F
2850,2450795000.00,NACK
2851,2450834000.00,Stop
2852,2460135000.00,Start
2853,2460156000.00,Address write: A0
2854,2460341000.00,Write
2855,2460377000.00,ACK
2856,2460427000.00,Data write: 05
2857,2460653000.00,ACK
2858,2460703000.00,Start repeat
2859,2460724000.00,Address read: A1
2860,2460910000.00,Read
2861,2460945000.00,ACK
2862,2460997000.00,Data read: E0
2863,2461241000.00,ACK
2864,2461277000.00,Data read: D8
2865,2461514000.00,ACK
2866,2461549000.00,Data read: 5B
2867,2461781000.00,NACK
2868,2461821000.00,Stop
2869,2471125000.00,Start
2870,2471146000.00,Address write: A0
2871,2471332000.00,Write
2872,2471367000.00,ACK
2873,2471418000.00,Data write: 05
2874,2471644000.00,ACK
2875,2471694000.00,Start repeat
2876,2471714000.00,Address read: A1
2877,2471900000.00,Read
2878,2471935000.00,ACK
2879,2471987000.00,Data read: E0
2880,2472230000.00,ACK
2881,2472266000.00,Data read: DB
2882,2472503000.00,ACK
2883,2472539000.00,Data read: 4D
2884,2472771000.00,NACK
2885,2472810000.00,Stop
2886,2482109000.00,Start
2887,2482129000.00,Address write: A0
2888,2482315000.00,Write
2889,2482350000.00,ACK
2890,2482401000.00,Data write: 05
2891,2482627000.00,ACK
2892,2482677000.00,Start repeat
2893,2482698000.00,Address read: A1
2894,2482883000.00,Read
2895,2482919000.00,ACK
2896,2482970000.00,Data read: E0
2897,2483214000.00,ACK
2898,2483250000.00,Data read: DB
2899,2483487000.00,ACK
2900,2483523000.00,Data read: 11
2901,2483755000.00,NACK
2902,2483794000.00,Stop
2903,2493097000.00,Start
2904,2493117000.00,Address write: A0
2905,2493303000.00,Write
2906,2493338000.00,ACK
2907,2493389000.00,Data write: 05
2908,2493615000.00,ACK
2909,2493665000.00,Start repeat
2910,2493686000.00,Address read: A1
2911,2493871000.00,Read
2912,2493907000.00,ACK
2913,2493958000.00,Data read: E0
2914,2494202000.00,ACK
2915,2494238000.00,Data read: DD
2916,2494475000.00,ACK
2917,2494511000.00,Data read: 3D
2918,2494743000.00,NACK
2919,2494782000.00,Stop
2920,2504086000.00,Start
2921,2504106000.00,Address write: A0
2922,2504292000.00,Write
2923,2504327000.00,ACK
2924,2504378000.00,Data write: 05
2925,2504604000.00,ACK
2926,2504654000.00,Start repeat
2927,2504674000.00,Address read: A1
2928,2504860000.00,Read
2929,2504895000.00,ACK
2930,2504947000.00,Data read: E0
2931,2505191000.00,ACK
2932,2505227000.00,Data read: D9
2933,2505464000.00,ACK
2934,2505500000.00,Data read: FF
2935,2505731000.00,NACK
2936,2505771000.00,Stop
2937,2515076000.00,Start
2938,2515096000.00,Address write: A0
2939,2515282000.00,Write
2940,2515318000.00,ACK
2941,2515368000.00,Data write: 05
2942,2515594000.00,ACK
2943,2515644000.00,Start repeat
2944,2515665000.00,Address read: A1
2945,2515851000.00,Read
2946,2515886000.00,ACK
2947,2515938000.00,Data read: E0
2948,2516182000.00,ACK
2949,2516218000.00,Data read: D9
2950,2516455000.00,ACK
2951,2516490000.00,Data read: 31
2952,2516722000.00,NACK
2953,2516762000.00,Stop
2954,2526065000.00,Start
2955,2526085000.00,Address write: A0
2956,2526271000.00,Write
2957,2526307000.00,ACK
2958,2526357000.00,Data write: 05
2959,2526583000.00,ACK
2960,2526633000.00,Start repeat
2961,2526654000.00,Address read: A1
2962,2526839000.00,Read
2963,2526875000.00,ACK
2964,2526926000.00,Data read: E0
2965,2527170000.00,ACK
2966,2527206000.00,Data read: D6
2967,2527443000.00,ACK
2968,2527479000.00,Data read: A7
2969,2527711000.00,NACK
2970,2527750000.00,Stop
2971,2527772000.00,Start
2972,2527793000.00,Address write: A0
2973,2527983000.00,Write
2974,2528020000.00,ACK
2975,2528081000.00,Data write: 01
2976,2528302000.00,ACK
2977,2528353000.00,Data write: 33
2978,2528579000.00,ACK
2979,2528629000.00,Stop
2980,2538054000.00,Start
2981,2538074000.00,Address write: A0
2982,2538260000.00,Write
2983,2538295000.00,ACK
2984,2538346000.00,Data write: 05
2985,2538572000.00,ACK
2986,2538622000.00,Start repeat
2987,2538643000.00,Address read: A1
2988,2538829000.00,Read
2989,2538864000.00,ACK
2990,2538916000.00,Data read: E0
2991,2539160000.00,ACK
2992,2539196000.00,Data read: D6
2993,2539433000.00,ACK
2994,2539468000.00,Data read: A6
2995,2539700000.00,NACK
2996,2539740000.00,Stop
2997,2549046000.00,Start
2998,2549066000.00,Address write: A0
2999,2549252000.00,Write
3000,2549287000.00,ACK
3001,2549338000.00,Data write: 05
3002,2549564000.00,ACK
3003,2549614000.00,Start repeat
3004,2549635000.00,Address read: A1
3005,2549820000.00,Read
3006,2549856000.00,ACK
3007,2549907000.00,Data read: E0
3008,2550151000.00,ACK
3009,2550187000.00,Data read: D6
3010,2550424000.00,ACK
3011,2550460000.00,Data read: A6
3012,2550692000.00,NACK
3013,2550731000.00,Stop
3014,2560032000.00,Start
3015,2560053000.00,Address write: A0
3016,2560238000.00,Write
3017,2560274000.00,ACK
3018,2560324000.00,Data write: 05
3019,2560550000.00,ACK
3020,2560600000.00,Start repeat
3021,2560621000.00,Address read: A1
3022,2560806000.00,Read
3023,2560842000.00,ACK
3024,2560893000.00,Data read: 9F
3025,2561137000.00,ACK
3026,2561173000.00,Data read: 85
3027,2561410000.00,ACK
3028,2561446000.00,Data read: 5B
3029,2561677000.00,NACK
3030,2561717000.00,Stop
3031,2571017000.00,Start
3032,2571038000.00,Address write: A0
3033,2571223000.00,Write
3034,2571259000.00,ACK
3035,2571309000.00,Data write: 05
3036,2571535000.00,ACK
3037,2571585000.00,Start repeat
3038,2571606000.00,Address read: A1
3039,2571791000.00,Read
3040,2571827000.00,ACK
3041,2571878000.00,Data read: 9F
3042,2572122000.00,ACK
3043,2572158000.00,Data read: 87
3044,2572395000.00,ACK
3045,2572431000.00,Data read: E1
3046,2572663000.00,NACK
3047,2572702000.00,Stop
3048,2582004000.00,Start
3049,2582025000.00,Address write: A0
3050,2582210000.00,Write
3051,2582246000.00,ACK
3052,2582296000.00,Data write: 05
3053,2582522000.00,ACK
3054,2582572000.00,Start repeat
3055,2582593000.00,Address read: A1
3056,2582778000.00,Read
3057,2582814000.00,ACK
3058,2582865000.00,Data read: 9F
3059,2583109000.00,ACK
3060,2583145000.00,Data read: 7F
3061,2583382000.00,ACK
3062,2583418000.00,Data read: 73
3063,2583650000.00,NACK
3064,2583690000.00,Stop
3065,2592997000.00,Start
3066,2593018000.00,Address write: A0
3067,2593203000.00,Write
3068,2593239000.00,ACK
3069,2593289000.00,Data write: 05
3070,2593515000.00,ACK
3071,2593565000.00,Start repeat
3072,2593586000.00,Address read: A1
3073,2593771000.00,Read
3074,2593807000.00,ACK
3075,2593858000.00,Data read: 9F
3076,2594102000.00,ACK
3077,2594138000.00,Data read: 87
3078,2594375000.00,ACK
3079,2594411000.00,Data read: 03
3080,2594643000.00,NACK
3081,2594682000.00,Stop
3082,2603983000.00,Start
3083,2604004000.00,Address write: A0
3084,2604190000.00,Write
3085,2604225000.00,ACK
3086,2604276000.00,Data write: 05
3087,2604502000.00,ACK
3088,2604552000.00,Start repeat
3089,2604572000.00,Address read: A1
3090,2604758000.00,Read
3091,2604793000.00,ACK
3092,2604845000.00,Data read: 9F
3093,2605089000.00,ACK
3094,2605125000.00,Data read: 82
3095,2605362000.00,ACK
3096,2605398000.00,Data read: F9
3097,2605630000.00,NACK
3098,2605669000.00,Stop
3099,2614972000.00,Start
3100,2614993000.00,Address write: A0
3101,2615178000.00,Write
3102,2615214000.00,ACK
3103,2615264000.00,Data write: 05
3104,2615490000.00,ACK
3105,2615540000.00,Start repeat
3106,2615561000.00,Address read: A1
3107,2615746000.00,Read
3108,2615782000.00,ACK
3109,2615834000.00,Data read: 9F
3110,2616077000.00,ACK
3111,2616113000.00,Data read: 85
3112,2616350000.00,ACK
3113,2616386000.00,Data read: F1
3114,2616618000.00,NACK
3115,2616657000.00,Stop
3116,2625962000.00,Start
3117,2625982000.00,Address write: A0
3118,2626168000.00,Write
3119,2626204000.00,ACK
3120,2626254000.00,Data write: 05
3121,2626480000.00,ACK
3122,2626530000.00,Start repeat
3123,2626551000.00,Address read: A1
3124,2626737000.00,Read
3125,2626772000.00,ACK
3126,2626824000.00,Data read: 9F
3127,2627068000.00,ACK
3128,2627104000.00,Data read: 7F
3129,2627341000.00,ACK
3130,2627377000.00,Data read: 73
3131,2627609000.00,NACK
3132,2627648000.00,Stop
3133,2636953000.00,Start
3134,2636974000.00,Address write: A0
3135,2637160000.00,Write
3136,2637195000.00,ACK
3137,2637246000.00,Data write: 05
3138,2637472000.00,ACK
3139,2637522000.00,Start repeat
3140,2637542000.00,Address read: A1
3141,2637728000.00,Read
3142,2637763000.00,ACK
3143,2637815000.00,Data read: 9F
3144,2638059000.00,ACK
3145,2638095000.00,Data read: 87
3146,2638332000.00,ACK
3147,2638368000.00,Data read: CB
3148,2638600000.00,NACK
3149,2638639000.00,Stop
3150,2647943000.00,Start
3151,2647964000.00,Address write: A0
3152,2648149000.00,Write
3153,2648185000.00,ACK
3154,2648235000.00,Data write: 05
3155,2648461000.00,ACK
3156,2648511000.00,Start repeat
3157,2648532000.00,Address read: A1
3158,2648718000.00,Read
3159,2648753000.00,ACK
3160,2648805000.00,Data read: 9F
3161,2649049000.00,ACK
3162,2649084000.00,Data read: 84
3163,2649321000.00,ACK
3164,2649357000.00,Data read: 81
3165,2649589000.00,NACK
3166,2649628000.00,Stop
3167,2658930000.00,Start
3168,2658951000.00,Address write: A0
3169,2659136000.00,Write
3170,2659172000.00,ACK
3171,2659222000.00,Data write: 05
3172,2659448000.00,ACK
3173,2659498000.00,Start repeat
3174,2659519000.00,Address read: A1
3175,2659704000.00,Read
3176,2659740000.00,ACK
3177,2659791000.00,Data read: 9F
3178,2660035000.00,ACK
3179,2660071000.00,Data read: 81
3180,2660308000.00,ACK
3181,2660344000.00,Data read: 75
3182,2660576000.00,NACK
3183,2660615000.00,Stop
3184,2660637000.00,Start
3185,2660658000.00,Address write: A0
3186,2660849000.00,Write
3187,2660885000.00,ACK
3188,2660947000.00,Data write: 01
3189,2661168000.00,ACK
3190,2661218000.00,Data write: 31
3191,2661444000.00,ACK
3192,2661495000.00,Stop
3193,2670916000.00,Start
3194,2670936000.00,Address write: A0
3195,2671122000.00,Write
3196,2671157000.00,ACK
3197,2671208000.00,Data write: 05
3198,2671434000.00,ACK
3199,2671484000.00,Start repeat
3200,2671505000.00,Address read: A1
3201,2671690000.00,Read
3202,2671726000.00,ACK
3203,2671777000.00,Data read: 9F
3204,2672021000.00,ACK
3205,2672057000.00,Data read: 81
3206,2672294000.00,ACK
3207,2672330000.00,Data read: 74
3208,2672562000.00,NACK
3209,2672601000.00,Stop
3210,2681906000.00,Start
3211,2681927000.00,Address write: A0
3212,2682112000.00,Write
3213,2682148000.00,ACK
3214,2682198000.00,Data write: 05
3215,2682424000.00,ACK
3216,2682474000.00,Start repeat
3217,2682495000.00,Address read: A1
3218,2682680000.00,Read
3219,2682716000.00,ACK
3220,2682768000.00,Data read: 9F
3221,2683011000.00,ACK
3222,2683047000.00,Data read: 81
3223,2683284000.00,ACK
3224,2683320000.00,Data read: 74
3225,2683552000.00,NACK
3226,2683591000.00,Stop
3227,2692894000.00,Start
3228,2692914000.00,Address write: A0
3229,2693100000.00,Write
3230,2693135000.00,ACK
3231,2693186000.00,Data write: 05
3232,2693412000.00,ACK
3233,2693462000.00,Start repeat
3234,2693482000.00,Address read: A1
3235,2693668000.00,Read
3236,2693703000.00,ACK
3237,2693755000.00,Data read: 8A
3238,2693999000.00,ACK
3239,2694035000.00,Data read: D2
3240,2694272000.00,ACK
3241,2694308000.00,Data read: 01
3242,2694539000.00,NACK
3243,2694579000.00,Stop
3244,2703879000.00,Start
3245,2703900000.00,Address write: A0
3246,2704085000.00,Write
3247,2704121000.00,ACK
3248,2704171000.00,Data write: 05
3249,2704397000.00,ACK
3250,2704447000.00,Start repeat
3251,2704468000.00,Address read: A1
3252,2704654000.00,Read
3253,2704689000.00,ACK
3254,2704741000.00,Data read: 8A
3255,2704985000.00,ACK
3256,2705021000.00,Data read: C3
3257,2705257000.00,ACK
3258,2705293000.00,Data read: 7D
3259,2705525000.00,NACK
3260,2705565000.00,Stop
3261,2714868000.00,Start
3262,2714888000.00,Address write: A0
3263,2715074000.00,Write
3264,2715109000.00,ACK
3265,2715160000.00,Data write: 05
3266,2715386000.00,ACK
3267,2715436000.00,Start repeat
3268,2715457000.00,Address read: A1
3269,2715642000.00,Read
3270,2715678000.00,ACK
3271,2715729000.00,Data read: 8A
3272,2715973000.00,ACK
3273,2716009000.00,Data read: C3
3274,2716246000.00,ACK
3275,2716282000.00,Data read: FB
3276,2716514000.00,NACK
3277,2716553000.00,Stop
3278,2725854000.00,Start
3279,2725875000.00,Address write: A0
3280,2726060000.00,Write
3281,2726096000.00,ACK
3282,2726146000.00,Data write: 05
3283,2726372000.00,ACK
3284,2726422000.00,Start repeat
3285,2726443000.00,Address read: A1
3286,2726628000.00,Read
3287,2726664000.00,ACK
3288,2726716000.00,Data read: 8A
3289,2726959000.00,ACK
3290,2726995000.00,Data read: C1
3291,2727232000.00,ACK
3292,2727268000.00,Data read: F9
3293,2727500000.00,NACK
3294,2727539000.00,Stop
3295,2736839000.00,Start
3296,2736859000.00,Address write: A0
3297,2737045000.00,Write
3298,2737080000.00,ACK
3299,2737131000.00,Data write: 05
3300,2737357000.00,ACK
3301,2737407000.00,Start repeat
3302,2737427000.00,Address read: A1
3303,2737613000.00,Read
3304,2737648000.00,ACK
3305,2737700000.00,Data read: 8A
3306,2737944000.00,ACK
3307,2737979000.00,Data read: C0
3308,2738216000.00,ACK
3309,2738252000.00,Data read: 59
3310,2738484000.00,NACK
3311,2738523000.00,Stop
3312,2747828000.00,Start
3313,2747848000.00,Address write: A0
3314,2748034000.00,Write
3315,2748069000.00,ACK
3316,2748120000.00,Data write: 05
3317,2748346000.00,ACK
3318,2748396000.00,Start repeat
3319,2748417000.00,Address read: A1
3320,2748602000.00,Read
3321,2748638000.00,ACK
3322,2748689000.00,Data read: 8A
3323,2748933000.00,ACK
3324,2748969000.00,Data read: BF
3325,2749206000.00,ACK
3326,2749242000.00,Data read: 23
3327,2749474000.00,NACK
3328,2749513000.00,Stop
3329,2758817000.00,Start
3330,2758837000.00,Address write: A0
3331,2759023000.00,Write
3332,2759058000.00,ACK
3333,2759109000.00,Data write: 05
3334,2759335000.00,ACK
3335,2759385000.00,Start repeat
3336,2759406000.00,Address read: A1
3337,2759591000.00,Read
3338,2759627000.00,ACK
3339,2759678000.00,Data read: 8A
3340,2759922000.00,ACK
3341,2759958000.00,Data read: BC
3342,2760195000.00,ACK
3343,2760231000.00,Data read: 83
3344,2760462000.00,NACK
3345,2760502000.00,Stop
3346,2769802000.00,Start
3347,2769823000.00,Address write: A0
3348,2770008000.00,Write
3349,2770043000.00,ACK
3350,2770094000.00,Data write: 05
3351,2770320000.00,ACK
3352,2770370000.00,Start repeat
3353,2770390000.00,Address read: A1
3354,2770576000.00,Read
3355,2770611000.00,ACK
3356,2770663000.00,Data read: 8A
3357,2770907000.00,ACK
3358,2770943000.00,Data read: BD
3359,2771180000.00,ACK
3360,2771215000.00,Data read: D3
3361,2771447000.00,NACK
3362,2771487000.00,Stop
3363,2780787000.00,Start
3364,2780807000.00,Address write: A0
3365,2780993000.00,Write
3366,2781028000.00,ACK
3367,2781079000.00,Data write: 05
3368,2781305000.00,ACK
3369,2781355000.00,Start repeat
3370,2781376000.00,Address read: A1
3371,2781561000.00,Read
3372,2781597000.00,ACK
3373,2781648000.00,Data read: 8A
3374,2781892000.00,ACK
3375,2781928000.00,Data read: BA
3376,2782165000.00,ACK
3377,2782201000.00,Data read: 4B
3378,2782433000.00,NACK
3379,2782472000.00,Stop
3380,2791774000.00,Start
3381,2791795000.00,Address write: A0
3382,2791980000.00,Write
3383,2792016000.00,ACK
3384,2792066000.00,Data write: 05
3385,2792292000.00,ACK
3386,2792342000.00,Start repeat
3387,2792363000.00,Address read: A1
3388,2792549000.00,Read
3389,2792584000.00,ACK
3390,2792636000.00,Data read: 8A
3391,2792880000.00,ACK
3392,2792915000.00,Data read: BB
3393,2793152000.00,ACK
3394,2793188000.00,Data read: D7
3395,2793420000.00,NACK
3396,2793460000.00,Stop
3397,2793482000.00,Start
3398,2793502000.00,Address write: A0
3399,2793693000.00,Write
3400,2793730000.00,ACK
3401,2793791000.00,Data write: 01
3402,2794012000.00,ACK
3403,2794063000.00,Data write: 32
3404,2794289000.00,ACK
3405,2794339000.00,Stop
3406,2804762000.00,Start
3407,2804782000.00,Address write: A0
3408,2804968000.00,Write
3409,2805004000.00,ACK
3410,2805054000.00,Data write: 05
3411,2805280000.00,ACK
3412,2805330000.00,Start repeat
3413,2805351000.00,Address read: A1
3414,2805536000.00,Read
3415,2805572000.00,ACK
3416,2805623000.00,Data read: 8A
3417,2805867000.00,ACK
3418,2805903000.00,Data read: BB
3419,2806140000.00,ACK
3420,2806176000.00,Data read: D6
3421,2806408000.00,NACK
3422,2806447000.00,Stop
3423,2815747000.00,Start
3424,2815768000.00,Address write: A0
3425,2815953000.00,Write
3426,2815989000.00,ACK
3427,2816039000.00,Data write: 05
3428,2816265000.00,ACK
3429,2816315000.00,Start repeat
3430,2816336000.00,Address read: A1
3431,2816522000.00,Read
3432,2816557000.00,ACK
3433,2816609000.00,Data read: 8A
3434,2816853000.00,ACK
3435,2816889000.00,Data read: BB
3436,2817125000.00,ACK
3437,2817161000.00,Data read: D6
3438,2817393000.00,NACK
3439,2817433000.00,Stop
3440,2826736000.00,Start
3441,2826756000.00,Address write: A0
3442,2826942000.00,Write
3443,2826977000.00,ACK
3444,2827028000.00,Data write: 05
3445,2827254000.00,ACK
3446,2827304000.00,Start repeat
3447,2827324000.00,Address read: A1
3448,2827510000.00,Read
3449,2827546000.00,ACK
3450,2827597000.00,Data read: E0
3451,2827841000.00,ACK
3452,2827877000.00,Data read: D7
3453,2828114000.00,ACK
3454,2828150000.00,Data read: 8D
3455,2828381000.00,NACK
3456,2828421000.00,Stop
3457,2837723000.00,Start
3458,2837743000.00,Address write: A0
3459,2837929000.00,Write
3460,2837965000.00,ACK
3461,2838015000.00,Data write: 05
3462,2838241000.00,ACK
3463,2838291000.00,Start repeat
3464,2838312000.00,Address read: A1
3465,2838497000.00,Read
3466,2838533000.00,ACK
3467,2838584000.00,Data read: E0
3468,2838828000.00,ACK
3469,2838864000.00,Data read: D9
3470,2839101000.00,ACK
3471,2839137000.00,Data read: DB
3472,2839369000.00,NACK
3473,2839408000.00,Stop
3474,2848714000.00,Start
3475,2848735000.00,Address write: A0
3476,2848920000.00,Write
3477,2848956000.00,ACK
3478,2849006000.00,Data write: 05
3479,2849232000.00,ACK
3480,2849282000.00,Start repeat
3481,2849303000.00,Address read: A1
3482,2849489000.00,Read
3483,2849524000.00,ACK
3484,2849576000.00,Data read: E0
3485,2849820000.00,ACK
3486,2849856000.00,Data read: D9
3487,2850093000.00,ACK
3488,2850129000.00,Data read: 75
3489,2850360000.00,NACK
3490,2850400000.00,Stop
3491,2859701000.00,Start
3492,2859722000.00,Address write: A0
3493,2859907000.00,Write
3494,2859943000.00,ACK
3495,2859993000.00,Data write: 05
3496,2860219000.00,ACK
3497,2860269000.00,Start repeat
3498,2860290000.00,Address read: A1
3499,2860476000.00,Read
3500,2860511000.00,ACK
3501,2860563000.00,Data read: E0
3502,2860807000.00,ACK
3503,2860843000.00,Data read: D9
3504,2861080000.00,ACK
3505,2861115000.00,Data read: E1
3506,2861347000.00,NACK
3507,2861387000.00,Stop
3508,2870689000.00,Start
3509,2870709000.00,Address write: A0
3510,2870895000.00,Write
3511,2870930000.00,ACK
3512,2870980000.00,Data write: 05
3513,2871207000.00,ACK
3514,2871256000.00,Start repeat
3515,2871277000.00,Address read: A1
3516,2871463000.00,Read
3517,2871498000.00,ACK
3518,2871550000.00,Data read: E0
3519,2871793000.00,ACK
3520,2871829000.00,Data read: DA
3521,2872066000.00,ACK
3522,2872102000.00,Data read: E7
3523,2872334000.00,NACK
3524,2872373000.00,Stop
3525,2881673000.00,Start
3526,2881693000.00,Address write: A0
3527,2881879000.00,Write
3528,2881914000.00,ACK
3529,2881965000.00,Data write: 05
3530,2882191000.00,ACK
3531,2882240000.00,Start repeat
3532,2882261000.00,Address read: A1
3533,2882447000.00,Read
3534,2882482000.00,ACK
3535,2882534000.00,Data read: E0
3536,2882777000.00,ACK
3537,2882813000.00,Data read: D9
3538,2883050000.00,ACK
3539,2883086000.00,Data read: 23
3540,2883318000.00,NACK
3541,2883357000.00,Stop
3542,2892662000.00,Start
3543,2892682000.00,Address write: A0
3544,2892868000.00,Write
3545,2892904000.00,ACK
3546,2892954000.00,Data write: 05
3547,2893180000.00,ACK
3548,2893230000.00,Start repeat
3549,2893251000.00,Address read: A1
3550,2893437000.00,Read
3551,2893472000.00,ACK
3552,2893524000.00,Data read: E0
3553,2893768000.00,ACK
3554,2893804000.00,Data read: D9
3555,2894040000.00,ACK
3556,2894076000.00,Data read: D5
3557,2894308000.00,NACK
3558,2894348000.00,Stop
3559,2903648000.00,Start
3560,2903669000.00,Address write: A0
3561,2903854000.00,Write
3562,2903890000.00,ACK
3563,2903940000.00,Data write: 05
3564,2904166000.00,ACK
3565,2904216000.00,Start repeat
3566,2904237000.00,Address read: A1
3567,2904423000.00,Read
3568,2904458000.00,ACK
3569,2904510000.00,Data read: E0
3570,2904754000.00,ACK
3571,2904789000.00,Data read: D9
3572,2905026000.00,ACK
3573,2905062000.00,Data read: 4F
3574,2905294000.00,NACK
3575,2905334000.00,Stop
3576,2914637000.00,Start
3577,2914657000.00,Address write: A0
3578,2914843000.00,Write
3579,2914878000.00,ACK
3580,2914929000.00,Data write: 05
3581,2915155000.00,ACK
3582,2915205000.00,Start repeat
3583,2915225000.00,Address read: A1
3584,2915411000.00,Read
3585,2915446000.00,ACK
3586,2915498000.00,Data read: E0
3587,2915742000.00,ACK
3588,2915778000.00,Data read: D9
3589,2916015000.00,ACK
3590,2916050000.00,Data read: 2F
3591,2916282000.00,NACK
3592,2916322000.00,Stop
3593,2925625000.00,Start
3594,2925645000.00,Address write: A0
3595,2925831000.00,Write
3596,2925866000.00,ACK
3597,2925917000.00,Data write: 05
3598,2926143000.00,ACK
3599,2926193000.00,Start repeat
3600,2926213000.00,Address read: A1
3601,2926399000.00,Read
3602,2926434000.00,ACK
3603,2926486000.00,Data read: E0
3604,2926730000.00,ACK
3605,2926766000.00,Data read: D5
3606,2927003000.00,ACK
3607,2927039000.00,Data read: C5
3608,2927270000.00,NACK
3609,2927310000.00,Stop
3610,2927332000.00,Start
3611,2927353000.00,Address write: A0
3612,2927543000.00,Write
3613,2927580000.00,ACK
3614,2927641000.00,Data write: 01
3615,2927862000.00,ACK
3616,2927913000.00,Data write: 33
3617,2928139000.00,ACK
3618,2928189000.00,Stop
3619,2937612000.00,Start
3620,2937633000.00,Address write: A0
3621,2937819000.00,Write
3622,2937854000.00,ACK
3623,2937905000.00,Data write: 05
3624,2938131000.00,ACK
3625,2938181000.00,Start repeat
3626,2938201000.00,Address read: A1
3627,2938387000.00,Read
3628,2938422000.00,ACK
3629,2938474000.00,Data read: E0
3630,2938718000.00,ACK
3631,2938754000.00,Data read: D5
3632,2938991000.00,ACK
3633,2939027000.00,Data read: C4
3634,2939259000.00,NACK
3635,2939298000.00,Stop
3636,2948602000.00,Start
3637,2948623000.00,Address write: A0
3638,2948809000.00,Write
3639,2948844000.00,ACK
3640,2948895000.00,Data write: 05
3641,2949121000.00,ACK
3642,2949171000.00,Start repeat
3643,2949191000.00,Address read: A1
3644,2949377000.00,Read
3645,2949412000.00,ACK
3646,2949464000.00,Data read: E0
3647,2949708000.00,ACK
3648,2949744000.00,Data read: D5
3649,2949981000.00,ACK
3650,2950017000.00,Data read: C4
3651,2950248000.00,NACK
3652,2950288000.00,Stop
3653,2959588000.00,Start
3654,2959609000.00,Address write: A0
3655,2959794000.00,Write
3656,2959830000.00,ACK
3657,2959880000.00,Data write: 05
3658,2960106000.00,ACK
3659,2960156000.00,Start repeat
3660,2960177000.00,Address read: A1
3661,2960362000.00,Read
3662,2960398000.00,ACK
3663,2960449000.00,Data read: 9F
3664,2960693000.00,ACK
3665,2960729000.00,Data read: 7F
3666,2960966000.00,ACK
3667,2961002000.00,Data read: 63
3668,2961234000.00,NACK
3669,2961273000.00,Stop
3670,2970576000.00,Start
3671,2970596000.00,Address write: A0
3672,2970782000.00,Write
3673,2970817000.00,ACK
3674,2970868000.00,Data write: 05
3675,2971094000.00,ACK
3676,2971144000.00,Start repeat
3677,2971165000.00,Address read: A1
3678,2971350000.00,Read
3679,2971386000.00,ACK
3680,2971438000.00,Data read: 9F
3681,2971682000.00,ACK
3682,2971718000.00,Data read: 82
3683,2971955000.00,ACK
3684,2971990000.00,Data read: 33
3685,2972222000.00,NACK
3686,2972262000.00,Stop
3687,2981565000.00,Start
3688,2981585000.00,Address write: A0
3689,2981771000.00,Write
3690,2981806000.00,ACK
3691,2981857000.00,Data write: 05
3692,2982083000.00,ACK
3693,2982133000.00,Start repeat
3694,2982153000.00,Address read: A1
3695,2982339000.00,Read
3696,2982375000.00,ACK
3697,2982426000.00,Data read: 9F
3698,2982670000.00,ACK
3699,2982706000.00,Data read: 7A
3700,2982943000.00,ACK
3701,2982979000.00,Data read: 13
3702,2983210000.00,NACK
3703,2983250000.00,Stop
3704,2992552000.00,Start
3705,2992573000.00,Address write: A0
3706,2992758000.00,Write
3707,2992794000.00,ACK
3708,2992844000.00,Data write: 05
3709,2993071000.00,ACK
3710,2993120000.00,Start repeat
3711,2993141000.00,Address read: A1
3712,2993327000.00,Read
3713,2993362000.00,ACK
3714,2993414000.00,Data read: 9F
3715,2993658000.00,ACK
3716,2993694000.00,Data read: 81
3717,2993931000.00,ACK
3718,2993967000.00,Data read: 1B
3719,2994198000.00,NACK
3720,2994238000.00,Stop
3721,3003536000.00,Start
3722,3003557000.00,Address write: A0
3723,3003743000.00,Write
3724,3003778000.00,ACK
3725,3003829000.00,Data write: 05
3726,3004055000.00,ACK
3727,3004105000.00,Start repeat
3728,3004125000.00,Address read: A1
3729,3004311000.00,Read
3730,3004346000.00,ACK
3731,3004398000.00,Data read: 9F
3732,3004642000.00,ACK
3733,3004678000.00,Data read: 7D
3734,3004915000.00,ACK
3735,3004951000.00,Data read: 65
3736,3005183000.00,NACK
3737,3005222000.00,Stop
3738,3014527000.00,Start
3739,3014547000.00,Address write: A0
3740,3014733000.00,Write
3741,3014769000.00,ACK
3742,3014819000.00,Data write: 05
3743,3015045000.00,ACK
3744,3015095000.00,Start repeat
3745,3015116000.00,Address read: A1
3746,3015301000.00,Read
3747,3015337000.00,ACK
3748,3015389000.00,Data read: 9F
3749,3015632000.00,ACK
3750,3015668000.00,Data read: 80
3751,3015905000.00,ACK
3752,3015941000.00,Data read: EF
3753,3016173000.00,NACK
3754,3016213000.00,Stop
3755,3025519000.00,Start
3756,3025540000.00,Address write: A0
3757,3025726000.00,Write
3758,3025761000.00,ACK
3759,3025812000.00,Data write: 05
3760,3026038000.00,ACK
3761,3026088000.00,Start repeat
3762,3026108000.00,Address read: A1
3763,3026294000.00,Read
3764,3026329000.00,ACK
3765,3026381000.00,Data read: 9F
3766,3026625000.00,ACK
3767,3026661000.00,Data read: 7A
3768,3026898000.00,ACK
3769,3026934000.00,Data read: 63
3770,3027165000.00,NACK
3771,3027205000.00,Stop
3772,3036508000.00,Start
3773,3036528000.00,Address write: A0
3774,3036714000.00,Write
3775,3036749000.00,ACK
3776,3036800000.00,Data write: 05
3777,3037026000.00,ACK
3778,3037076000.00,Start repeat
3779,3037097000.00,Address read: A1
3780,3037282000.00,Read
3781,3037318000.00,ACK
3782,3037369000.00,Data read: 9F
3783,3037613000.00,ACK
3784,3037649000.00,Data read: 82
3785,3037886000.00,ACK
3786,3037922000.00,Data read: D9
3787,3038154000.00,NACK
3788,3038193000.00,Stop
3789,3047494000.00,Start
3790,3047515000.00,Address write: A0
3791,3047701000.00,Write
3792,3047736000.00,ACK
3793,3047787000.00,Data write: 05
3794,3048013000.00,ACK
3795,3048063000.00,Start repeat
3796,3048083000.00,Address read: A1
3797,3048269000.00,Read
3798,3048305000.00,ACK
3799,3048356000.00,Data read: 9F
3800,3048600000.00,ACK
3801,3048636000.00,Data read: 80
3802,3048873000.00,ACK
3803,3048909000.00,Data read: 7D
3804,3049141000.00,NACK
3805,3049180000.00,Stop
3806,3058485000.00,Start
3807,3058505000.00,Address write: A0
3808,3058691000.00,Write
3809,3058726000.00,ACK
3810,3058777000.00,Data write: 05
3811,3059003000.00,ACK
3812,3059053000.00,Start repeat
3813,3059073000.00,Address read: A1
3814,3059259000.00,Read
3815,3059295000.00,ACK
3816,3059346000.00,Data read: 9F
3817,3059590000.00,ACK
3818,3059626000.00,Data read: 7E
3819,3059863000.00,ACK
3820,3059899000.00,Data read: 57
3821,3060131000.00,NACK
3822,3060170000.00,Stop
3823,3060192000.00,Start
3824,3060213000.00,Address write: A0
3825,3060404000.00,Write
3826,3060440000.00,ACK
3827,3060502000.00,Data write: 01
3828,3060723000.00,ACK
3829,3060773000.00,Data write: 31
3830,3061000000.00,ACK
3831,3061050000.00,Stop
3832,3070474000.00,Start
3833,3070495000.00,Address write: A0
3834,3070680000.00,Write
3835,3070716000.00,ACK
3836,3070766000.00,Data write: 05
3837,3070992000.00,ACK
3838,3071042000.00,Start repeat
3839,3071063000.00,Address read: A1
3840,3071249000.00,Read
3841,3071284000.00,ACK
3842,3071336000.00,Data read: 9F
3843,3071580000.00,ACK
3844,3071616000.00,Data read: 7E
3845,3071853000.00,ACK
3846,3071888000.00,Data read: 56
3847,3072120000.00,NACK
3848,3072160000.00,Stop
3849,3081463000.00,Start
3850,3081484000.00,Address write: A0
3851,3081669000.00,Write
3852,3081705000.00,ACK
3853,3081755000.00,Data write: 05
3854,3081981000.00,ACK
3855,3082031000.00,Start repeat
3856,3082052000.00,Address read: A1
3857,3082237000.00,Read
3858,3082273000.00,ACK
3859,3082325000.00,Data read: 9F
3860,3082568000.00,ACK
3861,3082604000.00,Data read: 7E
3862,3082841000.00,ACK
3863,3082877000.00,Data read: 56
3864,3083109000.00,NACK
3865,3083149000.00,Stop
3866,3092453000.00,Start
3867,3092474000.00,Address write: A0
3868,3092659000.00,Write
3869,3092695000.00,ACK
3870,3092745000.00,Data write: 05
3871,3092971000.00,ACK
3872,3093021000.00,Start repeat
3873,3093042000.00,Address read: A1
3874,3093228000.00,Read
3875,3093263000.00,ACK
3876,3093315000.00,Data read: 8A
3877,3093559000.00,ACK
3878,3093595000.00,Data read: CD
3879,3093831000.00,ACK
3880,3093867000.00,Data read: F3
3881,3094099000.00,NACK
3882,3094139000.00,Stop
3883,3103442000.00,Start
3884,3103463000.00,Address write: A0
3885,3103648000.00,Write
3886,3103684000.00,ACK
3887,3103734000.00,Data write: 05
3888,3103961000.00,ACK
3889,3104011000.00,Start repeat
3890,3104031000.00,Address read: A1
3891,3104217000.00,Read
3892,3104252000.00,ACK
3893,3104304000.00,Data read: 8A
3894,3104548000.00,ACK
3895,3104584000.00,Data read: C3
3896,3104821000.00,ACK
3897,3104857000.00,Data read: 93
3898,3105088000.00,NACK
3899,3105128000.00,Stop
3900,3114432000.00,Start
3901,3114452000.00,Address write: A0
3902,3114638000.00,Write
3903,3114674000.00,ACK
3904,3114724000.00,Data write: 05
3905,3114950000.00,ACK
3906,3115000000.00,Start repeat
3907,3115021000.00,Address read: A1
3908,3115206000.00,Read
3909,3115242000.00,ACK
3910,3115294000.00,Data read: 8A
3911,3115537000.00,ACK
3912,3115573000.00,Data read: C0
3913,3115810000.00,ACK
3914,3115846000.00,Data read: 37
3915,3116078000.00,NACK
3916,3116117000.00,Stop
3917,3125421000.00,Start
3918,3125442000.00,Address write: A0
3919,3125628000.00,Write
3920,3125663000.00,ACK
3921,3125714000.00,Data write: 05
3922,3125940000.00,ACK
3923,3125990000.00,Start repeat
3924,3126010000.00,Address read: A1
3925,3126196000.00,Read
3926,3126232000.00,ACK
3927,3126283000.00,Data read: 8A
3928,3126527000.00,ACK
3929,3126563000.00,Data read: C1
3930,3126800000.00,ACK
3931,3126836000.00,Data read: 1F
3932,3127068000.00,NACK
3933,3127107000.00,Stop
3934,3136411000.00,Start
3935,3136432000.00,Address write: A0
3936,3136617000.00,Write
3937,3136653000.00,ACK
3938,3136703000.00,Data write: 05
3939,3136929000.00,ACK
3940,3136979000.00,Start repeat
3941,3137000000.00,Address read: A1
3942,3137185000.00,Read
3943,3137221000.00,ACK
3944,3137272000.00,Data read: 8A
3945,3137516000.00,ACK
3946,3137552000.00,Data read: BC
3947,3137789000.00,ACK
3948,3137825000.00,Data read: BD
3949,3138056000.00,NACK
3950,3138096000.00,Stop
3951,3147402000.00,Start
3952,3147423000.00,Address write: A0
3953,3147608000.00,Write
3954,3147644000.00,ACK
3955,3147694000.00,Data write: 05
3956,3147920000.00,ACK
3957,3147970000.00,Start repeat
3958,3147991000.00,Address read: A1
3959,3148177000.00,Read
3960,3148212000.00,ACK
3961,3148264000.00,Data read: 8A
3962,3148508000.00,ACK
3963,3148544000.00,Data read: BE
3964,3148781000.00,ACK
3965,3148817000.00,Data read: 25
3966,3149048000.00,NACK
3967,3149088000.00,Stop
3968,3158392000.00,Start
3969,3158413000.00,Address write: A0
3970,3158598000.00,Write
3971,3158634000.00,ACK
3972,3158684000.00,Data write: 05
3973,3158910000.00,ACK
3974,3158960000.00,Start repeat
3975,3158981000.00,Address read: A1
3976,3159166000.00,Read
3977,3159201000.00,ACK
3978,3159253000.00,Data read: 8A
3979,3159497000.00,ACK
3980,3159533000.00,Data read: BC
3981,3159770000.00,ACK
3982,3159805000.00,Data read: DF
3983,3160037000.00,NACK
3984,3160077000.00,Stop
3985,3169381000.00,Start
3986,3169402000.00,Address write: A0
3987,3169587000.00,Write
3988,3169623000.00,ACK
3989,3169673000.00,Data write: 05
3990,3169899000.00,ACK
3991,3169949000.00,Start repeat
3992,3169970000.00,Address read: A1
3993,3170155000.00,Read
3994,3170191000.00,ACK
3995,3170242000.00,Data read: 8A
3996,3170486000.00,ACK
3997,3170522000.00,Data read: BA
3998,3170759000.00,ACK
3999,3170795000.00,Data read: 7B
4000,3171027000.00,NACK
4001,3171066000.00,Stop
4002,3180370000.00,Start
4003,3180391000.00,Address write: A0
4004,3180577000.00,Write
4005,3180612000.00,ACK
4006,3180663000.00,Data write: 05
4007,3180889000.00,ACK
4008,3180939000.00,Start repeat
4009,3180959000.00,Address read: A1
4010,3181145000.00,Read
4011,3181181000.00,ACK
4012,3181232000.00,Data read: 8A
4013,3181476000.00,ACK
4014,3181512000.00,Data read: BA
4015,3181749000.00,ACK
4016,3181785000.00,Data read: BD
4017,3182017000.00,NACK
4018,3182056000.00,Stop
4019,3191359000.00,Start
4020,3191379000.00,Address write: A0
4021,3191565000.00,Write
4022,3191600000.00,ACK
4023,3191651000.00,Data write: 05
4024,3191877000.00,ACK
4025,3191926000.00,Start repeat
4026,3191947000.00,Address read: A1
4027,3192133000.00,Read
4028,3192168000.00,ACK
4029,3192220000.00,Data read: 8A
4030,3192464000.00,ACK
4031,3192499000.00,Data read: B8
4032,3192736000.00,ACK
4033,3192772000.00,Data read: 91
4034,3193004000.00,NACK
4035,3193043000.00,Stop
4036,3193066000.00,Start
4037,3193086000.00,Address write: A0
4038,3193277000.00,Write
4039,3193313000.00,ACK
4040,3193375000.00,Data write: 01
4041,3193596000.00,ACK
4042,3193646000.00,Data write: 32
4043,3193872000.00,ACK
4044,3193923000.00,Stop
4045,3204346000.00,Start
4046,3204366000.00,Address write: A0
4047,3204552000.00,Write
4048,3204588000.00,ACK
4049,3204638000.00,Data write: 05
4050,3204864000.00,ACK
4051,3204914000.00,Start repeat
4052,3204935000.00,Address read: A1
4053,3205121000.00,Read
4054,3205156000.00,ACK
4055,3205208000.00,Data read: 8A
4056,3205452000.00,ACK
4057,3205488000.00,Data read: B8
4058,3205725000.00,ACK
4059,3205760000.00,Data read: 90
4060,3205992000.00,NACK
4061,3206032000.00,Stop
4062,3215338000.00,Start
4063,3215358000.00,Address write: A0
4064,3215544000.00,Write
4065,3215580000.00,ACK
4066,3215630000.00,Data write: 05
4067,3215856000.00,ACK
4068,3215906000.00,Start repeat
4069,3215927000.00,Address read: A1
4070,3216113000.00,Read
4071,3216148000.00,ACK
4072,3216200000.00,Data read: 8A
4073,3216444000.00,ACK
4074,3216480000.00,Data read: B8
4075,3216717000.00,ACK
4076,3216752000.00,Data read: 90
4077,3216984000.00,NACK
4078,3217024000.00,Stop
4079,3226326000.00,Start
4080,3226347000.00,Address write: A0
4081,3226533000.00,Write
4082,3226568000.00,ACK
4083,3226619000.00,Data write: 05
4084,3226845000.00,ACK
4085,3226895000.00,Start repeat
4086,3226915000.00,Address read: A1
4087,3227101000.00,Read
4088,3227137000.00,ACK
4089,3227188000.00,Data read: E0
4090,3227432000.00,ACK
4091,3227468000.00,Data read: D0
4092,3227705000.00,ACK
4093,3227741000.00,Data read: 9D
4094,3227973000.00,NACK
4095,3228012000.00,Stop
4096,3255482000.00,Start
4097,3255503000.00,Address write: A0
4098,3255694000.00,Write
4099,3255729000.00,ACK
4100,3255780000.00,Data write: 05
4101,3256001000.00,ACK
4102,3256051000.00,Start repeat
4103,3256071000.00,Address read: A1
4104,3256263000.00,Read
4105,3256309000.00,ACK
4106,3256356000.00,Data read: E0
4107,3256588000.00,ACK
4108,3256624000.00,Data read: D1
4109,3256861000.00,ACK
4110,3256897000.00,Data read: 23
4111,3257128000.00,NACK
4112,3257173000.00,Stop
4113,3266286000.00,Start
4114,3266306000.00,Address write: A0
4115,3266492000.00,Write
4116,3266527000.00,ACK
4117,3266578000.00,Data write: 05
4118,3266804000.00,ACK
4119,3266854000.00,Start repeat
4120,3266875000.00,Address read: A1
4121,3267060000.00,Read
4122,3267095000.00,ACK
4123,3267147000.00,Data read: E0
4124,3267391000.00,ACK
4125,3267427000.00,Data read: CD
4126,3267664000.00,ACK
4127,3267699000.00,Data read: B7
4128,3267931000.00,NACK
4129,3267971000.00,Stop
4130,3277277000.00,Start
4131,3277297000.00,Address write: A0
4132,3277483000.00,Write
4133,3277518000.00,ACK
4134,3277569000.00,Data write: 05
4135,3277795000.00,ACK
4136,3277845000.00,Start repeat
4137,3277866000.00,Address read: A1
4138,3278051000.00,Read
4139,3278087000.00,ACK
4140,3278138000.00,Data read: E0
4141,3278382000.00,ACK
4142,3278418000.00,Data read: CD
4143,3278655000.00,ACK
4144,3278691000.00,Data read: BB
4145,3278922000.00,NACK
4146,3278962000.00,Stop
4147,3288260000.00,Start
4148,3288280000.00,Address write: A0
4149,3288466000.00,Write
4150,3288501000.00,ACK
4151,3288552000.00,Data write: 05
4152,3288778000.00,ACK
4153,3288828000.00,Start repeat
4154,3288848000.00,Address read: A1
4155,3289034000.00,Read
4156,3289069000.00,ACK
4157,3289121000.00,Data read: E0
4158,3289365000.00,ACK
4159,3289401000.00,Data read: CC
4160,3289638000.00,ACK
4161,3289674000.00,Data read: 09
4162,3289905000.00,NACK
4163,3289945000.00,Stop
4164,3299248000.00,Start
4165,3299269000.00,Address write: A0
4166,3299454000.00,Write
4167,3299490000.00,ACK
4168,3299540000.00,Data write: 05
4169,3299767000.00,ACK
4170,3299816000.00,Start repeat
4171,3299837000.00,Address read: A1
4172,3300023000.00,Read
4173,3300058000.00,ACK
4174,3300110000.00,Data read: E0
4175,3300354000.00,ACK
4176,3300390000.00,Data read: CB
4177,3300627000.00,ACK
4178,3300663000.00,Data read: 77
4179,3300895000.00,NACK
4180,3300934000.00,Stop
4181,3310241000.00,Start
4182,3310262000.00,Address write: A0
4183,3310448000.00,Write
4184,3310483000.00,ACK
4185,3310534000.00,Data write: 05
4186,3310760000.00,ACK
4187,3310810000.00,Start repeat
4188,3310830000.00,Address read: A1
4189,3311016000.00,Read
4190,3311051000.00,ACK
4191,3311103000.00,Data read: E0
4192,3311347000.00,ACK
4193,3311383000.00,Data read: CD
4194,3311619000.00,ACK
4195,3311655000.00,Data read: 23
4196,3311887000.00,NACK
4197,3311926000.00,Stop
4198,3321228000.00,Start
4199,3321249000.00,Address write: A0
4200,3321434000.00,Write
4201,3321470000.00,ACK
4202,3321520000.00,Data write: 05
4203,3321746000.00,ACK
4204,3321796000.00,Start repeat
4205,3321817000.00,Address read: A1
4206,3322002000.00,Read
4207,3322038000.00,ACK
4208,3322090000.00,Data read: E0
4209,3322333000.00,ACK
4210,3322369000.00,Data read: CD
4211,3322606000.00,ACK
4212,3322642000.00,Data read: D9
4213,3322874000.00,NACK
4214,3322913000.00,Stop
4215,3332215000.00,Start
4216,3332236000.00,Address write: A0
4217,3332422000.00,Write
4218,3332457000.00,ACK
4219,3332508000.00,Data write: 05
4220,3332734000.00,ACK
4221,3332784000.00,Start repeat
4222,3332804000.00,Address read: A1
4223,3332990000.00,Read
4224,3333026000.00,ACK
4225,3333077000.00,Data read: E0
4226,3333321000.00,ACK
4227,3333357000.00,Data read: CE
4228,3333594000.00,ACK
4229,3333630000.00,Data read: F1
4230,3333862000.00,NACK
4231,3333901000.00,Stop
4232,3343209000.00,Start
4233,3343230000.00,Address write: A0
4234,3343415000.00,Write
4235,3343451000.00,ACK
4236,3343501000.00,Data write: 05
4237,3343728000.00,ACK
4238,3343778000.00,Start repeat
4239,3343798000.00,Address read: A1
4240,3343984000.00,Read
4241,3344019000.00,ACK
4242,3344071000.00,Data read: E0
4243,3344315000.00,ACK
4244,3344351000.00,Data read: CC
4245,3344588000.00,ACK
4246,3344623000.00,Data read: 2D
4247,3344855000.00,NACK
4248,3344895000.00,Stop
4249,3344917000.00,Start
4250,3344937000.00,Address write: A0
4251,3345128000.00,Write
4252,3345165000.00,ACK
4253,3345226000.00,Data write: 01
4254,3345447000.00,ACK
4255,3345497000.00,Data write: 33
4256,3345723000.00,ACK
4257,3345774000.00,Stop
4258,3355195000.00,Start
4259,3355215000.00,Address write: A0
4260,3355401000.00,Write
4261,3355437000.00,ACK
4262,3355487000.00,Data write: 05
4263,3355713000.00,ACK
4264,3355763000.00,Start repeat
4265,3355784000.00,Address read: A1
4266,3355969000.00,Read
4267,3356005000.00,ACK
4268,3356057000.00,Data read: E0
4269,3356301000.00,ACK
4270,3356336000.00,Data read: CC
4271,3356573000.00,ACK
4272,3356609000.00,Data read: 2C
4273,3356841000.00,NACK
4274,3356881000.00,Stop
4275,3376124000.00,Start
4276,3376145000.00,Address write: A0
4277,3376342000.00,Write
4278,3376378000.00,ACK
4279,3376428000.00,Data write: 05
4280,3376654000.00,ACK
4281,3376704000.00,Start repeat
4282,3376725000.00,Address read: A1
4283,3376911000.00,Read
4284,3376946000.00,ACK
4285,3376993000.00,Data read: 9F
4286,3377242000.00,ACK
4287,3377278000.00,Data read: 80
4288,3377509000.00,ACK
4289,3377550000.00,Data read: AD
4290,3377782000.00,NACK
4291,3377822000.00,Stop
4292,3387162000.00,Start
4293,3387183000.00,Address write: A0
4294,3387368000.00,Write
4295,3387404000.00,ACK
4296,3387454000.00,Data write: 05
4297,3387680000.00,ACK
4298,3387730000.00,Start repeat
4299,3387751000.00,Address read: A1
4300,3387936000.00,Read
4301,3387972000.00,ACK
4302,3388023000.00,Data read: 9F
4303,3388267000.00,ACK
4304,3388303000.00,Data read: 78
4305,3388540000.00,ACK
4306,3388575000.00,Data read: A5
4307,3388807000.00,NACK
4308,3388846000.00,Stop
4309,3398150000.00,Start
4310,3398171000.00,Address write: A0
4311,3398356000.00,Write
4312,3398392000.00,ACK
4313,3398442000.00,Data write: 05
4314,3398668000.00,ACK
4315,3398718000.00,Start repeat
4316,3398739000.00,Address read: A1
4317,3398925000.00,Read
4318,3398960000.00,ACK
4319,3399012000.00,Data read: 9F
4320,3399256000.00,ACK
4321,3399292000.00,Data read: 7B
4322,3399529000.00,ACK
4323,3399564000.00,Data read: 03
4324,3399796000.00,NACK
4325,3399836000.00,Stop
4326,3409137000.00,Start
4327,3409158000.00,Address write: A0
4328,3409344000.00,Write
4329,3409379000.00,ACK
4330,3409430000.00,Data write: 05
4331,3409656000.00,ACK
4332,3409706000.00,Start repeat
4333,3409726000.00,Address read: A1
4334,3409912000.00,Read
4335,3409947000.00,ACK
4336,3409999000.00,Data read: 9F
4337,3410243000.00,ACK
4338,3410279000.00,Data read: 7E
4339,3410516000.00,ACK
4340,3410552000.00,Data read: 31
4341,3410784000.00,NACK
4342,3410823000.00,Stop
4343,3420131000.00,Start
4344,3420152000.00,Address write: A0
4345,3420337000.00,Write
4346,3420373000.00,ACK
4347,3420423000.00,Data write: 05
4348,3420649000.00,ACK
4349,3420699000.00,Start repeat
4350,3420720000.00,Address read: A1
4351,3420906000.00,Read
4352,3420941000.00,ACK
4353,3420993000.00,Data read: 9F
4354,3421237000.00,ACK
4355,3421272000.00,Data read: 7F
4356,3421509000.00,ACK
4357,3421545000.00,Data read: 73
4358,3421777000.00,NACK
4359,3421817000.00,Stop
4360,3431118000.00,Start
4361,3431139000.00,Address write: A0
4362,3431325000.00,Write
4363,3431360000.00,ACK
4364,3431411000.00,Data write: 05
4365,3431637000.00,ACK
4366,3431687000.00,Start repeat
4367,3431707000.00,Address read: A1
4368,3431893000.00,Read
4369,3431928000.00,ACK
4370,3431980000.00,Data read: 9F
4371,3432224000.00,ACK
4372,3432260000.00,Data read: 82
4373,3432497000.00,ACK
4374,3432533000.00,Data read: 43
4375,3432765000.00,NACK
4376,3432804000.00,Stop
4377,3442102000.00,Start
4378,3442123000.00,Address write: A0
4379,3442308000.00,Write
4380,3442344000.00,ACK
4381,3442394000.00,Data write: 05
4382,3442620000.00,ACK
4383,3442670000.00,Start repeat
4384,3442691000.00,Address read: A1
4385,3442876000.00,Read
4386,3442912000.00,ACK
4387,3442963000.00,Data read: 9F
4388,3443207000.00,ACK
4389,3443243000.00,Data read: 7A
4390,3443480000.00,ACK
4391,3443516000.00,Data read: 17
4392,3443748000.00,NACK
4393,3443787000.00,Stop
4394,3453095000.00,Start
4395,3453116000.00,Address write: A0
4396,3453302000.00,Write
4397,3453337000.00,ACK
4398,3453388000.00,Data write: 05
4399,3453614000.00,ACK
4400,3453664000.00,Start repeat
4401,3453684000.00,Address read: A1
4402,3453870000.00,Read
4403,3453905000.00,ACK
4404,3453957000.00,Data read: 9F
4405,3454201000.00,ACK
4406,3454237000.00,Data read: 81
4407,3454474000.00,ACK
4408,3454510000.00,Data read: 33
4409,3454741000.00,NACK
4410,3454781000.00,Stop
4411,3464081000.00,Start
4412,3464102000.00,Address write: A0
4413,3464287000.00,Write
4414,3464323000.00,ACK
4415,3464373000.00,Data write: 05
4416,3464599000.00,ACK
4417,3464649000.00,Start repeat
4418,3464670000.00,Address read: A1
4419,3464855000.00,Read
4420,3464891000.00,ACK
4421,3464943000.00,Data read: 9F
4422,3465186000.00,ACK
4423,3465222000.00,Data read: 7C
4424,3465459000.00,ACK
4425,3465495000.00,Data read: B7
4426,3465727000.00,NACK
4427,3465766000.00,Stop
4428,3475067000.00,Start
4429,3475087000.00,Address write: A0
4430,3475273000.00,Write
4431,3475308000.00,ACK
4432,3475359000.00,Data write: 05
4433,3475585000.00,ACK
4434,3475635000.00,Start repeat
4435,3475655000.00,Address read: A1
4436,3475841000.00,Read
4437,3475877000.00,ACK
4438,3475928000.00,Data read: 9F
4439,3476172000.00,ACK
4440,3476208000.00,Data read: 7F
4441,3476445000.00,ACK
4442,3476481000.00,Data read: DF
4443,3476713000.00,NACK
4444,3476752000.00,Stop
4445,3476774000.00,Start
4446,3476795000.00,Address write: A0
4447,3476986000.00,Write
4448,3477022000.00,ACK
4449,3477084000.00,Data write: 01
4450,3477305000.00,ACK
4451,3477355000.00,Data write: 31
4452,3477581000.00,ACK
4453,3477632000.00,Stop
4454,3497078000.00,Start
4455,3497099000.00,Address write: A0
4456,3497284000.00,Write
4457,3497320000.00,ACK
4458,3497370000.00,Data write: 05
4459,3497596000.00,ACK
4460,3497646000.00,Start repeat
4461,3497667000.00,Address read: A1
4462,3497852000.00,Read
4463,3497893000.00,ACK
4464,3497939000.00,Data read: 9F
4465,3498183000.00,ACK
4466,3498219000.00,Data read: 7F
4467,3498456000.00,ACK
4468,3498492000.00,Data read: DE
4469,3498723000.00,NACK
4470,3498763000.00,Stop
4471,3508033000.00,Start
4472,3508054000.00,Address write: A0
4473,3508240000.00,Write
4474,3508275000.00,ACK
4475,3508325000.00,Data write: 05
4476,3508552000.00,ACK
4477,3508602000.00,Start repeat
4478,3508622000.00,Address read: A1
4479,3508808000.00,Read
4480,3508843000.00,ACK
4481,3508895000.00,Data read: 8A
4482,3509139000.00,ACK
4483,3509175000.00,Data read: D0
4484,3509411000.00,ACK
4485,3509447000.00,Data read: 5D
4486,3509679000.00,NACK
4487,3509719000.00,Stop
4488,3519014000.00,Start
4489,3519034000.00,Address write: A0
4490,3519220000.00,Write
4491,3519255000.00,ACK
4492,3519305000.00,Data write: 05
4493,3519531000.00,ACK
4494,3519581000.00,Start repeat
4495,3519602000.00,Address read: A1
4496,3519787000.00,Read
4497,3519823000.00,ACK
4498,3519874000.00,Data read: 8A
4499,3520118000.00,ACK
4500,3520154000.00,Data read: C6
4501,3520391000.00,ACK
4502,3520426000.00,Data read: A5
4503,3520658000.00,NACK
4504,3520697000.00,Stop
4505,3529996000.00,Start
4506,3530016000.00,Address write: A0
4507,3530202000.00,Write
4508,3530237000.00,ACK
4509,3530288000.00,Data write: 05
4510,3530514000.00,ACK
4511,3530564000.00,Start repeat
4512,3530584000.00,Address read: A1
4513,3530770000.00,Read
4514,3530805000.00,ACK
4515,3530857000.00,Data read: 8A
4516,3531101000.00,ACK
4517,3531137000.00,Data read: C1
4518,3531374000.00,ACK
4519,3531409000.00,Data read: FB
4520,3531641000.00,NACK
4521,3531681000.00,Stop
4522,3540983000.00,Start
4523,3541003000.00,Address write: A0
4524,3541189000.00,Write
4525,3541224000.00,ACK
4526,3541275000.00,Data write: 05
4527,3541501000.00,ACK
4528,3541550000.00,Start repeat
4529,3541571000.00,Address read: A1
4530,3541757000.00,Read
4531,3541792000.00,ACK
4532,3541844000.00,Data read: 8A
4533,3542087000.00,ACK
4534,3542123000.00,Data read: BF
4535,3542360000.00,ACK
4536,3542396000.00,Data read: 79
4537,3542628000.00,NACK
4538,3542667000.00,Stop
4539,3551966000.00,Start
4540,3551987000.00,Address write: A0
4541,3552173000.00,Write
4542,3552208000.00,ACK
4543,3552258000.00,Data write: 05
4544,3552485000.00,ACK
4545,3552534000.00,Start repeat
4546,3552555000.00,Address read: A1
4547,3552741000.00,Read
4548,3552776000.00,ACK
4549,3552828000.00,Data read: 8A
4550,3553071000.00,ACK
4551,3553107000.00,Data read: BC
4552,3553344000.00,ACK
4553,3553380000.00,Data read: E3
4554,3553612000.00,NACK
4555,3553651000.00,Stop
4556,3562949000.00,Start
4557,3562969000.00,Address write: A0
4558,3563155000.00,Write
4559,3563190000.00,ACK
4560,3563241000.00,Data write: 05
4561,3563467000.00,ACK
4562,3563516000.00,Start repeat
4563,3563537000.00,Address read: A1
4564,3563723000.00,Read
4565,3563758000.00,ACK
4566,3563810000.00,Data read: 8A
4567,3564053000.00,ACK
4568,3564089000.00,Data read: BC
4569,3564326000.00,ACK
4570,3564362000.00,Data read: A7
4571,3564593000.00,NACK
4572,3564633000.00,Stop
4573,3573937000.00,Start
4574,3573958000.00,Address write: A0
4575,3574143000.00,Write
4576,3574179000.00,ACK
4577,3574229000.00,Data write: 05
4578,3574455000.00,ACK
4579,3574505000.00,Start repeat
4580,3574526000.00,Address read: A1
4581,3574712000.00,Read
4582,3574747000.00,ACK
4583,3574799000.00,Data read: 8A
4584,3575043000.00,ACK
4585,3575078000.00,Data read: BA
4586,3575315000.00,ACK
4587,3575351000.00,Data read: 7B
4588,3575583000.00,NACK
4589,3575622000.00,Stop
4590,3584922000.00,Start
4591,3584942000.00,Address write: A0
4592,3585128000.00,Write
4593,3585163000.00,ACK
4594,3585214000.00,Data write: 05
4595,3585440000.00,ACK
4596,3585490000.00,Start repeat
4597,3585510000.00,Address read: A1
4598,3585696000.00,Read
4599,3585732000.00,ACK
4600,3585783000.00,Data read: 8A
4601,3586027000.00,ACK
4602,3586063000.00,Data read: BB
4603,3586300000.00,ACK
4604,3586336000.00,Data read: E3
4605,3586568000.00,NACK
4606,3586607000.00,Stop
4607,3595908000.00,Start
4608,3595928000.00,Address write: A0
4609,3596114000.00,Write
4610,3596149000.00,ACK
4611,3596200000.00,Data write: 05
4612,3596426000.00,ACK
4613,3596476000.00,Start repeat
4614,3596496000.00,Address read: A1
4615,3596682000.00,Read
4616,3596717000.00,ACK
4617,3596769000.00,Data read: 8A
4618,3597013000.00,ACK
4619,3597049000.00,Data read: B8
4620,3597286000.00,ACK
4621,3597322000.00,Data read: 3B
4622,3597553000.00,NACK
4623,3597593000.00,Stop
4624,3616830000.00,Start
4625,3616852000.00,Address write: A0
4626,3617048000.00,Write
4627,3617084000.00,ACK
4628,3617134000.00,Data write: 05
4629,3617360000.00,ACK
4630,3617410000.00,Start repeat
4631,3617431000.00,Address read: A1
4632,3617616000.00,Read
4633,3617652000.00,ACK
4634,3617698000.00,Data read: 8A
4635,3617947000.00,ACK
4636,3617983000.00,Data read: B8
4637,3618215000.00,ACK
4638,3618256000.00,Data read: B5
4639,3618488000.00,NACK
4640,3618527000.00,Stop
4641,3618549000.00,Start
4642,3618570000.00,Address write: A0
4643,3618761000.00,Write
4644,3618796000.00,ACK
4645,3618848000.00,Data write: 01
4646,3619080000.00,ACK
4647,3619130000.00,Data write: 32
4648,3619356000.00,ACK
4649,3619406000.00,Stop
4650,3629871000.00,Start
4651,3629892000.00,Address write: A0
4652,3630077000.00,Write
4653,3630113000.00,ACK
4654,3630163000.00,Data write: 05
4655,3630389000.00,ACK
4656,3630439000.00,Start repeat
4657,3630460000.00,Address read: A1
4658,3630646000.00,Read
4659,3630681000.00,ACK
4660,3630733000.00,Data read: 8A
4661,3630977000.00,ACK
4662,3631013000.00,Data read: B8
4663,3631250000.00,ACK
4664,3631286000.00,Data read: B4
4665,3631517000.00,NACK
4666,3631557000.00,Stop
4667,3640857000.00,Start
4668,3640878000.00,Address write: A0
4669,3641064000.00,Write
4670,3641099000.00,ACK
4671,3641150000.00,Data write: 05
4672,3641376000.00,ACK
4673,3641426000.00,Start repeat
4674,3641446000.00,Address read: A1
4675,3641632000.00,Read
4676,3641667000.00,ACK
4677,3641719000.00,Data read: 8A
4678,3641963000.00,ACK
4679,3641999000.00,Data read: B8
4680,3642236000.00,ACK
4681,3642272000.00,Data read: B4
4682,3642504000.00,NACK
4683,3642543000.00,Stop
4684,3651839000.00,Start
4685,3651859000.00,Address write: A0
4686,3652045000.00,Write
4687,3652080000.00,ACK
4688,3652131000.00,Data write: 05
4689,3652357000.00,ACK
4690,3652407000.00,Start repeat
4691,3652427000.00,Address read: A1
4692,3652613000.00,Read
4693,3652648000.00,ACK
4694,3652700000.00,Data read: E0
4695,3652944000.00,ACK
4696,3652980000.00,Data read: D8
4697,3653216000.00,ACK
4698,3653252000.00,Data read: 27
4699,3653484000.00,NACK
4700,3653523000.00,Stop
4701,3662820000.00,Start
4702,3662840000.00,Address write: A0
4703,3663026000.00,Write
4704,3663061000.00,ACK
4705,3663112000.00,Data write: 05
4706,3663338000.00,ACK
4707,3663388000.00,Start repeat
4708,3663408000.00,Address read: A1
4709,3663594000.00,Read
4710,3663629000.00,ACK
4711,3663681000.00,Data read: E0
4712,3663925000.00,ACK
4713,3663961000.00,Data read: D6
4714,3664197000.00,ACK
4715,3664233000.00,Data read: 87
4716,3664465000.00,NACK
4717,3664504000.00,Stop
4718,3673810000.00,Start
4719,3673830000.00,Address write: A0
4720,3674016000.00,Write
4721,3674051000.00,ACK
4722,3674102000.00,Data write: 05
4723,3674328000.00,ACK
4724,3674378000.00,Start repeat
4725,3674399000.00,Address read: A1
4726,3674584000.00,Read
4727,3674620000.00,ACK
4728,3674671000.00,Data read: E0
4729,3674915000.00,ACK
4730,3674951000.00,Data read: DB
4731,3675188000.00,ACK
4732,3675224000.00,Data read: 3F
4733,3675456000.00,NACK
4734,3675495000.00,Stop
4735,3684795000.00,Start
4736,3684816000.00,Address write: A0
4737,3685001000.00,Write
4738,3685037000.00,ACK
4739,3685087000.00,Data write: 05
4740,3685313000.00,ACK
4741,3685363000.00,Start repeat
4742,3685384000.00,Address read: A1
4743,3685569000.00,Read
4744,3685604000.00,ACK
4745,3685656000.00,Data read: E0
4746,3685900000.00,ACK
4747,3685936000.00,Data read: D8
4748,3686172000.00,ACK
4749,3686208000.00,Data read: FF
4750,3686440000.00,NACK
4751,3686480000.00,Stop
4752,3695781000.00,Start
4753,3695801000.00,Address write: A0
4754,3695987000.00,Write
4755,3696022000.00,ACK
4756,3696073000.00,Data write: 05
4757,3696299000.00,ACK
4758,3696349000.00,Start repeat
4759,3696370000.00,Address read: A1
4760,3696555000.00,Read
4761,3696591000.00,ACK
4762,3696642000.00,Data read: E0
4763,3696886000.00,ACK
4764,3696922000.00,Data read: D9
4765,3697159000.00,ACK
4766,3697195000.00,Data read: CB
4767,3697427000.00,NACK
4768,3697466000.00,Stop
4769,3706775000.00,Start
4770,3706795000.00,Address write: A0
4771,3706981000.00,Write
4772,3707016000.00,ACK
4773,3707067000.00,Data write: 05
4774,3707293000.00,ACK
4775,3707343000.00,Start repeat
4776,3707363000.00,Address read: A1
4777,3707549000.00,Read
4778,3707584000.00,ACK
4779,3707636000.00,Data read: E0
4780,3707880000.00,ACK
4781,3707916000.00,Data read: D8
4782,3708153000.00,ACK
4783,3708188000.00,Data read: CB
4784,3708420000.00,NACK
4785,3708460000.00,Stop
4786,3734964000.00,Start
4787,3734985000.00,Address write: A0
4788,3735175000.00,Write
4789,3735211000.00,ACK
4790,3735261000.00,Data write: 05
4791,3735482000.00,ACK
4792,3735532000.00,Start repeat
4793,3735553000.00,Address read: A1
4794,3735756000.00,Read
4795,3735791000.00,ACK
4796,3735838000.00,Data read: E0
4797,3736069000.00,ACK
4798,3736110000.00,Data read: DD
4799,3736342000.00,ACK
4800,3736378000.00,Data read: B5
4801,3736615000.00,NACK
4802,3736654000.00,Stop
4803,3745728000.00,Start
4804,3745748000.00,Address write: A0
4805,3745934000.00,Write
4806,3745969000.00,ACK
4807,3746020000.00,Data write: 05
4808,3746246000.00,ACK
4809,3746296000.00,Start repeat
4810,3746316000.00,Address read: A1
4811,3746502000.00,Read
4812,3746537000.00,ACK
4813,3746589000.00,Data read: E0
4814,3746833000.00,ACK
4815,3746869000.00,Data read: D8
4816,3747106000.00,ACK
4817,3747142000.00,Data read: 07
4818,3747373000.00,NACK
4819,3747413000.00,Stop
4820,3756718000.00,Start
4821,3756739000.00,Address write: A0
4822,3756925000.00,Write
4823,3756960000.00,ACK
4824,3757011000.00,Data write: 05
4825,3757237000.00,ACK
4826,3757287000.00,Start repeat
4827,3757307000.00,Address read: A1
4828,3757493000.00,Read
4829,3757528000.00,ACK
4830,3757580000.00,Data read: E0
4831,3757824000.00,ACK
4832,3757860000.00,Data read: D7
4833,3758097000.00,ACK
4834,3758133000.00,Data read: 0D
4835,3758365000.00,NACK
4836,3758404000.00,Stop
4837,3767705000.00,Start
4838,3767726000.00,Address write: A0
4839,3767911000.00,Write
4840,3767947000.00,ACK
4841,3767997000.00,Data write: 05
4842,3768223000.00,ACK
4843,3768273000.00,Start repeat
4844,3768294000.00,Address read: A1
4845,3768479000.00,Read
4846,3768515000.00,ACK
4847,3768566000.00,Data read: E0
4848,3768810000.00,ACK
4849,3768846000.00,Data read: D5
4850,3769083000.00,ACK
4851,3769119000.00,Data read: F1
4852,3769350000.00,NACK
4853,3769390000.00,Stop
4854,3769412000.00,Start
4855,3769432000.00,Address write: A0
4856,3769623000.00,Write
4857,3769660000.00,ACK
4858,3769721000.00,Data write: 01
4859,3769942000.00,ACK
4860,3769992000.00,Data write: 33
4861,3770218000.00,ACK
4862,3770268000.00,Stop
4863,3779684000.00,Start
4864,3779705000.00,Address write: A0
4865,3779891000.00,Write
4866,3779926000.00,ACK
4867,3779976000.00,Data write: 05
4868,3780203000.00,ACK
4869,3780253000.00,Start repeat
4870,3780273000.00,Address read: A1
4871,3780459000.00,Read
4872,3780494000.00,ACK
4873,3780546000.00,Data read: E0
4874,3780790000.00,ACK
4875,3780826000.00,Data read: D5
4876,3781063000.00,ACK
4877,3781099000.00,Data read: F0
4878,3781330000.00,NACK
4879,3781370000.00,Stop
4880,3790677000.00,Start
4881,3790697000.00,Address write: A0
4882,3790883000.00,Write
4883,3790918000.00,ACK
4884,3790969000.00,Data write: 05
4885,3791195000.00,ACK
4886,3791245000.00,Start repeat
4887,3791266000.00,Address read: A1
4888,3791451000.00,Read
4889,3791487000.00,ACK
4890,3791538000.00,Data read: E0
4891,3791782000.00,ACK
4892,3791818000.00,Data read: D5
4893,3792055000.00,ACK
4894,3792091000.00,Data read: F0
4895,3792323000.00,NACK
4896,3792362000.00,Stop
4897,3801663000.00,Start
4898,3801684000.00,Address write: A0
4899,3801869000.00,Write
4900,3801905000.00,ACK
4901,3801955000.00,Data write: 05
4902,3802182000.00,ACK
4903,3802232000.00,Start repeat
4904,3802252000.00,Address read: A1
4905,3802438000.00,Read
4906,3802473000.00,ACK
4907,3802525000.00,Data read: 9F
4908,3802769000.00,ACK
4909,3802805000.00,Data read: 7A
4910,3803042000.00,ACK
4911,3803078000.00,Data read: 61
4912,3803309000.00,NACK
4913,3803349000.00,Stop
4914,3812656000.00,Start
4915,3812677000.00,Address write: A0
4916,3812863000.00,Write
4917,3812898000.00,ACK
4918,3812949000.00,Data write: 05
4919,3813175000.00,ACK
4920,3813225000.00,Start repeat
4921,3813245000.00,Address read: A1
4922,3813431000.00,Read
4923,3813466000.00,ACK
4924,3813518000.00,Data read: 9F
4925,3813762000.00,ACK
4926,3813798000.00,Data read: 7F
4927,3814035000.00,ACK
4928,3814070000.00,Data read: 09
4929,3814302000.00,NACK
4930,3814342000.00,Stop
4931,3823641000.00,Start
4932,3823662000.00,Address write: A0
4933,3823847000.00,Write
4934,3823883000.00,ACK
4935,3823933000.00,Data write: 05
4936,3824159000.00,ACK
4937,3824209000.00,Start repeat
4938,3824230000.00,Address read: A1
4939,3824416000.00,Read
4940,3824451000.00,ACK
4941,3824503000.00,Data read: 9F
4942,3824747000.00,ACK
4943,3824783000.00,Data read: 79
4944,3825020000.00,ACK
4945,3825056000.00,Data read: 91
4946,3825287000.00,NACK
4947,3825327000.00,Stop
4948,3834628000.00,Start
4949,3834649000.00,Address write: A0
4950,3834834000.00,Write
4951,3834870000.00,ACK
4952,3834920000.00,Data write: 05
4953,3835146000.00,ACK
4954,3835196000.00,Start repeat
4955,3835216000.00,Address read: A1
4956,3835402000.00,Read
4957,3835437000.00,ACK
4958,3835489000.00,Data read: 9F
4959,3835733000.00,ACK
4960,3835769000.00,Data read: 82
4961,3836006000.00,ACK
4962,3836041000.00,Data read: 0F
4963,3836273000.00,NACK
4964,3836313000.00,Stop
4965,3855543000.00,Start
4966,3855565000.00,Address write: A0
4967,3855762000.00,Write
4968,3855797000.00,ACK
4969,3855847000.00,Data write: 05
4970,3856073000.00,ACK
4971,3856123000.00,Start repeat
4972,3856144000.00,Address read: A1
4973,3856330000.00,Read
4974,3856365000.00,ACK
4975,3856412000.00,Data read: 9F
4976,3856661000.00,ACK
4977,3856696000.00,Data read: 7D
4978,3856928000.00,ACK
4979,3856969000.00,Data read: B5
4980,3857201000.00,NACK
4981,3857240000.00,Stop
4982,3866592000.00,Start
4983,3866612000.00,Address write: A0
4984,3866798000.00,Write
4985,3866833000.00,ACK
4986,3866884000.00,Data write: 05
4987,3867110000.00,ACK
4988,3867160000.00,Start repeat
4989,3867180000.00,Address read: A1
4990,3867366000.00,Read
4991,3867401000.00,ACK
4992,3867453000.00,Data read: 9F
4993,3867697000.00,ACK
4994,3867733000.00,Data read: 7D
4995,3867970000.00,ACK
4996,3868005000.00,Data read: 99
4997,3868237000.00,NACK
4998,3868277000.00,Stop
4999,3877578000.00,Start
5000,3877599000.00,Address write: A0
5001,3877785000.00,Write
5002,3877820000.00,ACK
5003,3877870000.00,Data write: 05
5004,3878096000.00,ACK
5005,3878146000.00,Start repeat
5006,3878167000.00,Address read: A1
5007,3878353000.00,Read
5008,3878388000.00,ACK
5009,3878440000.00,Data read: 9F
5010,3878683000.00,ACK
5011,3878719000.00,Data read: 82
5012,3878956000.00,ACK
5013,3878992000.00,Data read: E7
5014,3879224000.00,NACK
5015,3879263000.00,Stop
5016,3888563000.00,Start
5017,3888583000.00,Address write: A0
5018,3888769000.00,Write
5019,3888804000.00,ACK
5020,3888855000.00,Data write: 05
5021,3889081000.00,ACK
5022,3889131000.00,Start repeat
5023,3889151000.00,Address read: A1
5024,3889337000.00,Read
5025,3889372000.00,ACK
5026,3889424000.00,Data read: 9F
5027,3889668000.00,ACK
5028,3889704000.00,Data read: 84
5029,3889940000.00,ACK
5030,3889976000.00,Data read: 6B
5031,3890208000.00,NACK
5032,3890248000.00,Stop
5033,3899556000.00,Start
5034,3899577000.00,Address write: A0
5035,3899763000.00,Write
5036,3899798000.00,ACK
5037,3899849000.00,Data write: 05
5038,3900075000.00,ACK
5039,3900125000.00,Start repeat
5040,3900145000.00,Address read: A1
5041,3900331000.00,Read
5042,3900366000.00,ACK
5043,3900418000.00,Data read: 9F
5044,3900662000.00,ACK
5045,3900698000.00,Data read: 7D
5046,3900935000.00,ACK
5047,3900971000.00,Data read: 67
5048,3901203000.00,NACK
5049,3901242000.00,Stop
5050,3910543000.00,Start
5051,3910564000.00,Address write: A0
5052,3910749000.00,Write
5053,3910785000.00,ACK
5054,3910835000.00,Data write: 05
5055,3911062000.00,ACK
5056,3911111000.00,Start repeat
5057,3911132000.00,Address read: A1
5058,3911318000.00,Read
5059,3911353000.00,ACK
5060,3911405000.00,Data read: 9F
5061,3911649000.00,ACK
5062,3911685000.00,Data read: 82
5063,3911922000.00,ACK
5064,3911958000.00,Data read: 61
5065,3912189000.00,NACK
5066,3912229000.00,Stop
5067,3912251000.00,Start
5068,3912272000.00,Address write: A0
5069,3912462000.00,Write
5070,3912499000.00,ACK
5071,3912560000.00,Data write: 01
5072,3912782000.00,ACK
5073,3912832000.00,Data write: 31
5074,3913058000.00,ACK
5075,3913108000.00,Stop
5076,3922529000.00,Start
5077,3922550000.00,Address write: A0
5078,3922735000.00,Write
5079,3922771000.00,ACK
5080,3922821000.00,Data write: 05
5081,3923048000.00,ACK
5082,3923097000.00,Start repeat
5083,3923118000.00,Address read: A1
5084,3923304000.00,Read
5085,3923339000.00,ACK
5086,3923391000.00,Data read: 9F
5087,3923635000.00,ACK
5088,3923671000.00,Data read: 82
5089,3923908000.00,ACK
5090,3923943000.00,Data read: 60
5091,3924175000.00,NACK
5092,3924215000.00,Stop
5093,3933520000.00,Start
5094,3933540000.00,Address write: A0
5095,3933726000.00,Write
5096,3933762000.00,ACK
5097,3933812000.00,Data write: 05
5098,3934038000.00,ACK
5099,3934088000.00,Start repeat
5100,3934109000.00,Address read: A1
5101,3934295000.00,Read
5102,3934330000.00,ACK
5103,3934382000.00,Data read: 9F
5104,3934626000.00,ACK
5105,3934662000.00,Data read: 82
5106,3934898000.00,ACK
5107,3934934000.00,Data read: 60
5108,3935166000.00,NACK
5109,3935206000.00,Stop
5110,3944504000.00,Start
5111,3944524000.00,Address write: A0
5112,3944710000.00,Write
5113,3944745000.00,ACK
5114,3944796000.00,Data write: 05
5115,3945022000.00,ACK
5116,3945072000.00,Start repeat
5117,3945093000.00,Address read: A1
5118,3945278000.00,Read
5119,3945314000.00,ACK
5120,3945365000.00,Data read: 8A
5121,3945609000.00,ACK
5122,3945645000.00,Data read: CE
5123,3945882000.00,ACK
5124,3945918000.00,Data read: 95
5125,3946150000.00,NACK
5126,3946189000.00,Stop
5127,3973694000.00,Start
5128,3973714000.00,Address write: A0
5129,3973905000.00,Write
5130,3973941000.00,ACK
5131,3973991000.00,Data write: 05
5132,3974212000.00,ACK
5133,3974262000.00,Start repeat
5134,3974283000.00,Address read: A1
5135,3974485000.00,Read
5136,3974521000.00,ACK
5137,3974567000.00,Data read: 8A
5138,3974799000.00,ACK
5139,3974840000.00,Data read: BE
5140,3975072000.00,ACK
5141,3975108000.00,Data read: B3
5142,3975344000.00,NACK
5143,3975384000.00,Stop
5144,3984458000.00,Start
5145,3984478000.00,Address write: A0
5146,3984664000.00,Write
5147,3984700000.00,ACK
5148,3984750000.00,Data write: 05
5149,3984976000.00,ACK
5150,3985026000.00,Start repeat
5151,3985047000.00,Address read: A1
5152,3985232000.00,Read
5153,3985268000.00,ACK
5154,3985319000.00,Data read: 8A
5155,3985563000.00,ACK
5156,3985599000.00,Data read: BD
5157,3985836000.00,ACK
5158,3985872000.00,Data read: E3
5159,3986104000.00,NACK
5160,3986143000.00,Stop
5161,3995451000.00,Start
5162,3995472000.00,Address write: A0
5163,3995657000.00,Write
5164,3995693000.00,ACK
5165,3995743000.00,Data write: 05
5166,3995969000.00,ACK
5167,3996019000.00,Start repeat
5168,3996040000.00,Address read: A1
5169,3996225000.00,Read
5170,3996261000.00,ACK
5171,3996313000.00,Data read: 8A
5172,3996556000.00,ACK
5173,3996592000.00,Data read: BE
5174,3996829000.00,ACK
5175,3996865000.00,Data read: EF
5176,3997097000.00,NACK
5177,3997136000.00,Stop
5178,4006439000.00,Start
5179,4006459000.00,Address write: A0
5180,4006645000.00,Write
5181,4006680000.00,ACK
5182,4006731000.00,Data write: 05
5183,4006957000.00,ACK
5184,4007007000.00,Start repeat
5185,4007028000.00,Address read: A1
5186,4007213000.00,Read
5187,4007249000.00,ACK
5188,4007300000.00,Data read: 8A
5189,4007544000.00,ACK
5190,4007580000.00,Data read: BA
5191,4007817000.00,ACK
5192,4007853000.00,Data read: 15
5193,4008085000.00,NACK
5194,4008124000.00,Stop
5195,4017423000.00,Start
5196,4017444000.00,Address write: A0
5197,4017630000.00,Write
5198,4017665000.00,ACK
5199,4017716000.00,Data write: 05
5200,4017942000.00,ACK
5201,4017992000.00,Start repeat
5202,4018012000.00,Address read: A1
5203,4018198000.00,Read
5204,4018233000.00,ACK
5205,4018285000.00,Data read: 8A
5206,4018529000.00,ACK
5207,4018565000.00,Data read: BB
5208,4018802000.00,ACK
5209,4018838000.00,Data read: 47
5210,4019070000.00,NACK
5211,4019109000.00,Stop
5212,4028415000.00,Start
5213,4028435000.00,Address write: A0
5214,4028621000.00,Write
5215,4028656000.00,ACK
5216,4028707000.00,Data write: 05
5217,4028933000.00,ACK
5218,4028983000.00,Start repeat
5219,4029003000.00,Address read: A1
5220,4029189000.00,Read
5221,4029224000.00,ACK
5222,4029276000.00,Data read: 8A
5223,4029520000.00,ACK
5224,4029556000.00,Data read: B8
5225,4029793000.00,ACK
5226,4029828000.00,Data read: C7
5227,4030060000.00,NACK
5228,4030100000.00,Stop
5229,4039402000.00,Start
5230,4039423000.00,Address write: A0
5231,4039608000.00,Write
5232,4039644000.00,ACK
5233,4039694000.00,Data write: 05
5234,4039920000.00,ACK
5235,4039970000.00,Start repeat
5236,4039991000.00,Address read: A1
5237,4040177000.00,Read
5238,4040212000.00,ACK
5239,4040264000.00,Data read: 8A
5240,4040508000.00,ACK
5241,4040544000.00,Data read: B9
5242,4040780000.00,ACK
5243,4040816000.00,Data read: 3B
5244,4041048000.00,NACK
5245,4041088000.00,Stop
5246,4050388000.00,Start
5247,4050409000.00,Address write: A0
5248,4050594000.00,Write
5249,4050630000.00,ACK
5250,4050680000.00,Data write: 05
5251,4050906000.00,ACK
5252,4050956000.00,Start repeat
5253,4050977000.00,Address read: A1
5254,4051163000.00,Read
5255,4051198000.00,ACK
5256,4051250000.00,Data read: 8A
5257,4051494000.00,ACK
5258,4051529000.00,Data read: B6
5259,4051766000.00,ACK
5260,4051802000.00,Data read: E7
5261,4052034000.00,NACK
5262,4052074000.00,Stop
5263,4061378000.00,Start
5264,4061398000.00,Address write: A0
5265,4061584000.00,Write
5266,4061619000.00,ACK
5267,4061670000.00,Data write: 05
5268,4061896000.00,ACK
5269,4061946000.00,Start repeat
5270,4061966000.00,Address read: A1
5271,4062152000.00,Read
5272,4062187000.00,ACK
5273,4062239000.00,Data read: 8A
5274,4062482000.00,ACK
5275,4062518000.00,Data read: B5
5276,4062755000.00,ACK
5277,4062791000.00,Data read: F1
5278,4063023000.00,NACK
5279,4063062000.00,Stop
5280,4063084000.00,Start
5281,4063105000.00,Address write: A0
5282,4063295000.00,Write
5283,4063332000.00,ACK
5284,4063393000.00,Data write: 01
5285,4063614000.00,ACK
5286,4063665000.00,Data write: 32
5287,4063891000.00,ACK
5288,4063941000.00,Stop
5289,4092568000.00,Start
5290,4092588000.00,Address write: A0
5291,4092779000.00,Write
5292,4092815000.00,ACK
5293,4092865000.00,Data write: 05
5294,4093086000.00,ACK
5295,4093136000.00,Start repeat
5296,4093157000.00,Address read: A1
5297,4093360000.00,Read
5298,4093395000.00,ACK
5299,4093442000.00,Data read: E0
5300,4093679000.00,ACK
5301,4093714000.00,Data read: DC
5302,4093946000.00,ACK
5303,4093982000.00,Data read: 8D
5304,4094219000.00,NACK
5305,4094258000.00,Stop
5306,4103326000.00,Start
5307,4103347000.00,Address write: A0
5308,4103532000.00,Write
5309,4103568000.00,ACK
5310,4103618000.00,Data write: 05
5311,4103844000.00,ACK
5312,4103894000.00,Start repeat
5313,4103915000.00,Address read: A1
5314,4104101000.00,Read
5315,4104136000.00,ACK
5316,4104188000.00,Data read: E0
5317,4104432000.00,ACK
5318,4104467000.00,Data read: DB
5319,4104704000.00,ACK
5320,4104740000.00,Data read: 11
5321,4104972000.00,NACK
5322,4105011000.00,Stop
5323,4114312000.00,Start
5324,4114333000.00,Address write: A0
5325,4114519000.00,Write
5326,4114554000.00,ACK
5327,4114604000.00,Data write: 05
5328,4114830000.00,ACK
5329,4114880000.00,Start repeat
5330,4114901000.00,Address read: A1
5331,4115086000.00,Read
5332,4115122000.00,ACK
5333,4115174000.00,Data read: E0
5334,4115417000.00,ACK
5335,4115453000.00,Data read: DC
5336,4115690000.00,ACK
5337,4115726000.00,Data read: 0D
5338,4115958000.00,NACK
5339,4115997000.00,Stop
5340,4125302000.00,Start
5341,4125323000.00,Address write: A0
5342,4125509000.00,Write
5343,4125544000.00,ACK
5344,4125594000.00,Data write: 05
5345,4125821000.00,ACK
5346,4125871000.00,Start repeat
5347,4125891000.00,Address read: A1
5348,4126077000.00,Read
5349,4126112000.00,ACK
5350,4126164000.00,Data read: E0
5351,4126408000.00,ACK
5352,4126443000.00,Data read: DA
5353,4126680000.00,ACK
5354,4126716000.00,Data read: 45
5355,4126948000.00,NACK
5356,4126987000.00,Stop
5357,4136286000.00,Start
5358,4136307000.00,Address write: A0
5359,4136492000.00,Write
5360,4136527000.00,ACK
5361,4136578000.00,Data write: 05
5362,4136804000.00,ACK
5363,4136854000.00,Start repeat
5364,4136875000.00,Address read: A1
5365,4137060000.00,Read
5366,4137095000.00,ACK
5367,4137147000.00,Data read: E0
5368,4137391000.00,ACK
5369,4137427000.00,Data read: DC
5370,4137664000.00,ACK
5371,4137699000.00,Data read: CD
5372,4137931000.00,NACK
5373,4137971000.00,Stop
5374,4147268000.00,Start
5375,4147288000.00,Address write: A0
5376,4147474000.00,Write
5377,4147509000.00,ACK
5378,4147560000.00,Data write: 05
5379,4147786000.00,ACK
5380,4147835000.00,Start repeat
5381,4147856000.00,Address read: A1
5382,4148042000.00,Read
5383,4148077000.00,ACK
5384,4148129000.00,Data read: E0
5385,4148372000.00,ACK
5386,4148408000.00,Data read: DC
5387,4148645000.00,ACK
5388,4148681000.00,Data read: F9
5389,4148913000.00,NACK
5390,4148952000.00,Stop
5391,4158257000.00,Start
5392,4158277000.00,Address write: A0
5393,4158463000.00,Write
5394,4158498000.00,ACK
5395,4158549000.00,Data write: 05
5396,4158775000.00,ACK
5397,4158825000.00,Start repeat
5398,4158846000.00,Address read: A1
5399,4159031000.00,Read
5400,4159067000.00,ACK
5401,4159118000.00,Data read: E0
5402,4159362000.00,ACK
5403,4159398000.00,Data read: DD
5404,4159635000.00,ACK
5405,4159671000.00,Data read: F7
5406,4159903000.00,NACK
5407,4159942000.00,Stop
5408,4169239000.00,Start
5409,4169260000.00,Address write: A0
5410,4169445000.00,Write
5411,4169481000.00,ACK
5412,4169531000.00,Data write: 05
5413,4169757000.00,ACK
5414,4169807000.00,Start repeat
5415,4169828000.00,Address read: A1
5416,4170013000.00,Read
5417,4170049000.00,ACK
5418,4170100000.00,Data read: E0
5419,4170344000.00,ACK
5420,4170380000.00,Data read: DD
5421,4170617000.00,ACK
5422,4170653000.00,Data read: C5
5423,4170885000.00,NACK
5424,4170924000.00,Stop
5425,4180223000.00,Start
5426,4180244000.00,Address write: A0
5427,4180430000.00,Write
5428,4180465000.00,ACK
5429,4180515000.00,Data write: 05
5430,4180742000.00,ACK
5431,4180791000.00,Start repeat
5432,4180812000.00,Address read: A1
5433,4180998000.00,Read
5434,4181033000.00,ACK
5435,4181085000.00,Data read: E0
5436,4181329000.00,ACK
5437,4181365000.00,Data read: DB
5438,4181602000.00,ACK
5439,4181637000.00,Data read: ED
5440,4181869000.00,NACK
5441,4181909000.00,Stop
5442,4191204000.00,Start
5443,4191225000.00,Address write: A0
5444,4191410000.00,Write
5445,4191446000.00,ACK
5446,4191496000.00,Data write: 05
5447,4191722000.00,ACK
5448,4191772000.00,Start repeat
5449,4191793000.00,Address read: A1
5450,4191978000.00,Read
5451,4192014000.00,ACK
5452,4192065000.00,Data read: E0
5453,4192309000.00,ACK
5454,4192345000.00,Data read: DC
5455,4192582000.00,ACK
5456,4192617000.00,Data read: 0F
5457,4192849000.00,NACK
5458,4192888000.00,Stop
5459,4192911000.00,Start
5460,4192931000.00,Address write: A0
5461,4193122000.00,Write
5462,4193158000.00,ACK
5463,4193220000.00,Data write: 01
5464,4193441000.00,ACK
5465,4193491000.00,Data write: 33
5466,4193717000.00,ACK
5467,4193767000.00,Stop
5468,4213210000.00,Start
5469,4213230000.00,Address write: A0
5470,4213416000.00,Write
5471,4213451000.00,ACK
5472,4213502000.00,Data write: 05
5473,4213728000.00,ACK
5474,4213778000.00,Start repeat
5475,4213799000.00,Address read: A1
5476,4213984000.00,Read
5477,4214025000.00,ACK
5478,4214071000.00,Data read: E0
5479,4214315000.00,ACK
5480,4214351000.00,Data read: DC
5481,4214588000.00,ACK
5482,4214624000.00,Data read: 0E
5483,4214856000.00,NACK
5484,4214895000.00,Stop
5485,4224164000.00,Start
5486,4224185000.00,Address write: A0
5487,4224370000.00,Write
5488,4224406000.00,ACK
5489,4224456000.00,Data write: 05
5490,4224682000.00,ACK
5491,4224732000.00,Start repeat
5492,4224753000.00,Address read: A1
5493,4224938000.00,Read
5494,4224974000.00,ACK
5495,4225026000.00,Data read: 9F
5496,4225269000.00,ACK
5497,4225305000.00,Data read: 7F
5498,4225542000.00,ACK
5499,4225578000.00,Data read: 95
5500,4225810000.00,NACK
5501,4225849000.00,Stop
5502,4235154000.00,Start
5503,4235175000.00,Address write: A0
5504,4235361000.00,Write
5505,4235396000.00,ACK
5506,4235446000.00,Data write: 05
5507,4235673000.00,ACK
5508,4235723000.00,Start repeat
5509,4235743000.00,Address read: A1
5510,4235929000.00,Read
5511,4235964000.00,ACK
5512,4236016000.00,Data read: 9F
5513,4236260000.00,ACK
5514,4236296000.00,Data read: 88
5515,4236533000.00,ACK
5516,4236568000.00,Data read: 35
5517,4236800000.00,NACK
5518,4236840000.00,Stop
5519,4246140000.00,Start
5520,4246160000.00,Address write: A0
5521,4246346000.00,Write
5522,4246381000.00,ACK
5523,4246432000.00,Data write: 05
5524,4246658000.00,ACK
5525,4246708000.00,Start repeat
5526,4246728000.00,Address read: A1
5527,4246914000.00,Read
5528,4246949000.00,ACK
5529,4247001000.00,Data read: 9F
5530,4247245000.00,ACK
5531,4247281000.00,Data read: 85
5532,4247517000.00,ACK
5533,4247553000.00,Data read: 83
5534,4247785000.00,NACK
5535,4247824000.00,Stop
5536,4257131000.00,Start
5537,4257151000.00,Address write: A0
5538,4257337000.00,Write
5539,4257372000.00,ACK
5540,4257423000.00,Data write: 05
5541,4257649000.00,ACK
5542,4257699000.00,Start repeat
5543,4257720000.00,Address read: A1
5544,4257905000.00,Read
5545,4257941000.00,ACK
5546,4257992000.00,Data read: 9F
5547,4258236000.00,ACK
5548,4258272000.00,Data read: 86
5549,4258509000.00,ACK
5550,4258545000.00,Data read: 45
5551,4258777000.00,NACK
5552,4258816000.00,Stop
5553,4268118000.00,Start
5554,4268139000.00,Address write: A0
5555,4268324000.00,Write
5556,4268360000.00,ACK
5557,4268410000.00,Data write: 05
5558,4268637000.00,ACK
5559,4268686000.00,Start repeat
5560,4268707000.00,Address read: A1
5561,4268893000.00,Read
5562,4268928000.00,ACK
5563,4268980000.00,Data read: 9F
5564,4269224000.00,ACK
5565,4269260000.00,Data read: 81
5566,4269497000.00,ACK
5567,4269533000.00,Data read: 95
5568,4269764000.00,NACK
5569,4269804000.00,Stop
5570,4279105000.00,Start
5571,4279125000.00,Address write: A0
5572,4279311000.00,Write
5573,4279347000.00,ACK
5574,4279397000.00,Data write: 05
5575,4279623000.00,ACK
5576,4279673000.00,Start repeat
5577,4279694000.00,Address read: A1
5578,4279879000.00,Read
5579,4279915000.00,ACK
5580,4279967000.00,Data read: 9F
5581,4280210000.00,ACK
5582,4280246000.00,Data read: 80
5583,4280483000.00,ACK
5584,4280519000.00,Data read: 61
5585,4280751000.00,NACK
5586,4280790000.00,Stop
5587,4290100000.00,Start
5588,4290121000.00,Address write: A0
5589,4290306000.00,Write
5590,4290342000.00,ACK
5591,4290392000.00,Data write: 05
5592,4290618000.00,ACK
5593,4290668000.00,Start repeat
5594,4290689000.00,Address read: A1
5595,4290874000.00,Read
5596,4290910000.00,ACK
5597,4290962000.00,Data read: 9F
5598,4291205000.00,ACK
5599,4291241000.00,Data read: 88
5600,4291478000.00,ACK
5601,4291514000.00,Data read: 1F
5602,4291746000.00,NACK
5603,4291786000.00,Stop
5604,4301083000.00,Start
5605,4301104000.00,Address write: A0
5606,4301289000.00,Write
5607,4301325000.00,ACK
5608,4301375000.00,Data write: 05
5609,4301601000.00,ACK
5610,4301651000.00,Start repeat
5611,4301672000.00,Address read: A1
5612,4301858000.00,Read
5613,4301893000.00,ACK
5614,4301945000.00,Data read: 9F
5615,4302188000.00,ACK
5616,4302224000.00,Data read: 83
5617,4302461000.00,ACK
5618,4302497000.00,Data read: 4B
5619,4302729000.00,NACK
5620,4302768000.00,Stop
5621,4312066000.00,Start
5622,4312087000.00,Address write: A0
5623,4312272000.00,Write
5624,4312308000.00,ACK
5625,4312358000.00,Data write: 05
5626,4312584000.00,ACK
5627,4312634000.00,Start repeat
5628,4312655000.00,Address read: A1
5629,4312840000.00,Read
5630,4312876000.00,ACK
5631,4312927000.00,Data read: 9F
5632,4313171000.00,ACK
5633,4313207000.00,Data read: 87
5634,4313444000.00,ACK
5635,4313480000.00,Data read: 43
5636,4313712000.00,NACK
5637,4313751000.00,Stop
5638,4332993000.00,Start
5639,4333015000.00,Address write: A0
5640,4333211000.00,Write
5641,4333247000.00,ACK
5642,4333297000.00,Data write: 05
5643,4333523000.00,ACK
5644,4333573000.00,Start repeat
5645,4333594000.00,Address read: A1
5646,4333779000.00,Read
5647,4333815000.00,ACK
5648,4333861000.00,Data read: 9F
5649,4334110000.00,ACK
5650,4334146000.00,Data read: 89
5651,4334378000.00,ACK
5652,4334419000.00,Data read: A9
5653,4334651000.00,NACK
5654,4334690000.00,Stop
5655,4334713000.00,Start
5656,4334733000.00,Address write: A0
5657,4334924000.00,Write
5658,4334959000.00,ACK
5659,4335011000.00,Data write: 01
5660,4335243000.00,ACK
5661,4335293000.00,Data write: 31
5662,4335520000.00,ACK
5663,4335570000.00,Stop
5664,4345038000.00,Start
5665,4345059000.00,Address write: A0
5666,4345244000.00,Write
5667,4345280000.00,ACK
5668,4345330000.00,Data write: 05
5669,4345556000.00,ACK
5670,4345606000.00,Start repeat
5671,4345627000.00,Address read: A1
5672,4345812000.00,Read
5673,4345848000.00,ACK
5674,4345900000.00,Data read: 9F
5675,4346144000.00,ACK
5676,4346179000.00,Data read: 89
5677,4346416000.00,ACK
5678,4346452000.00,Data read: A8
5679,4346684000.00,NACK
5680,4346723000.00,Stop
5681,4356025000.00,Start
5682,4356045000.00,Address write: A0
5683,4356231000.00,Write
5684,4356266000.00,ACK
5685,4356317000.00,Data write: 05
5686,4356543000.00,ACK
5687,4356593000.00,Start repeat
5688,4356614000.00,Address read: A1
5689,4356799000.00,Read
5690,4356835000.00,ACK
5691,4356886000.00,Data read: 9F
5692,4357130000.00,ACK
5693,4357166000.00,Data read: 89
5694,4357403000.00,ACK
5695,4357439000.00,Data read: A8
5696,4357671000.00,NACK
5697,4357710000.00,Stop
5698,4367016000.00,Start
5699,4367036000.00,Address write: A0
5700,4367222000.00,Write
5701,4367257000.00,ACK
5702,4367308000.00,Data write: 05
5703,4367534000.00,ACK
5704,4367584000.00,Start repeat
5705,4367605000.00,Address read: A1
5706,4367790000.00,Read
5707,4367826000.00,ACK
5708,4367877000.00,Data read: 8A
5709,4368121000.00,ACK
5710,4368157000.00,Data read: CA
5711,4368394000.00,ACK
5712,4368430000.00,Data read: B1
5713,4368661000.00,NACK
5714,4368701000.00,Stop
5715,4377996000.00,Start
5716,4378016000.00,Address write: A0
5717,4378202000.00,Write
5718,4378237000.00,ACK
5719,4378288000.00,Data write: 05
5720,4378514000.00,ACK
5721,4378564000.00,Start repeat
5722,4378584000.00,Address read: A1
5723,4378770000.00,Read
5724,4378805000.00,ACK
5725,4378857000.00,Data read: 8A
5726,4379101000.00,ACK
5727,4379136000.00,Data read: C0
5728,4379373000.00,ACK
5729,4379409000.00,Data read: 0B
5730,4379641000.00,NACK
5731,4379680000.00,Stop
5732,4388987000.00,Start
5733,4389008000.00,Address write: A0
5734,4389193000.00,Write
5735,4389229000.00,ACK
5736,4389279000.00,Data write: 05
5737,4389505000.00,ACK
5738,4389555000.00,Start repeat
5739,4389576000.00,Address read: A1
5740,4389762000.00,Read
5741,4389797000.00,ACK
5742,4389849000.00,Data read: 8A
5743,4390093000.00,ACK
5744,4390129000.00,Data read: BC
5745,4390366000.00,ACK
5746,4390401000.00,Data read: E7
5747,4390633000.00,NACK
5748,4390673000.00,Stop
5749,4399973000.00,Start
5750,4399993000.00,Address write: A0
5751,4400179000.00,Write
5752,4400214000.00,ACK
5753,4400265000.00,Data write: 05
5754,4400491000.00,ACK
5755,4400541000.00,Start repeat
5756,4400562000.00,Address read: A1
5757,4400747000.00,Read
5758,4400783000.00,ACK
5759,4400834000.00,Data read: 8A
5760,4401078000.00,ACK
5761,4401114000.00,Data read: BD
5762,4401351000.00,ACK
5763,4401387000.00,Data read: EF
5764,4401619000.00,NACK
5765,4401658000.00,Stop
5766,4410958000.00,Start
5767,4410979000.00,Address write: A0
5768,4411164000.00,Write
5769,4411200000.00,ACK
5770,4411250000.00,Data write: 05
5771,4411476000.00,ACK
5772,4411526000.00,Start repeat
5773,4411547000.00,Address read: A1
5774,4411732000.00,Read
5775,4411767000.00,ACK
5776,4411819000.00,Data read: 8A
5777,4412063000.00,ACK
5778,4412099000.00,Data read: B9
5779,4412335000.00,ACK
5780,4412371000.00,Data read: 4F
5781,4412603000.00,NACK
5782,4412642000.00,Stop
5783,4421948000.00,Start
5784,4421968000.00,Address write: A0
5785,4422154000.00,Write
5786,4422189000.00,ACK
5787,4422240000.00,Data write: 05
5788,4422466000.00,ACK
5789,4422516000.00,Start repeat
5790,4422537000.00,Address read: A1
5791,4422722000.00,Read
5792,4422758000.00,ACK
5793,4422810000.00,Data read: 8A
5794,4423053000.00,ACK
5795,4423089000.00,Data read: BB
5796,4423326000.00,ACK
5797,4423362000.00,Data read: 0B
5798,4423594000.00,NACK
5799,4423634000.00,Stop
5800,4451137000.00,Start
5801,4451158000.00,Address write: A0
5802,4451348000.00,Write
5803,4451384000.00,ACK
5804,4451434000.00,Data write: 05
5805,4451655000.00,ACK
5806,4451705000.00,Start repeat
5807,4451726000.00,Address read: A1
5808,4451929000.00,Read
5809,4451964000.00,ACK
5810,4452011000.00,Data read: 8A
5811,4452248000.00,ACK
5812,4452284000.00,Data read: B9
5813,4452515000.00,ACK
5814,4452551000.00,Data read: 81
5815,4452788000.00,NACK
5816,4452828000.00,Stop
5817,4461892000.00,Start
5818,4461913000.00,Address write: A0
5819,4462099000.00,Write
5820,4462134000.00,ACK
5821,4462184000.00,Data write: 05
5822,4462410000.00,ACK
5823,4462460000.00,Start repeat
5824,4462481000.00,Address read: A1
5825,4462666000.00,Read
5826,4462702000.00,ACK
5827,4462754000.00,Data read: 8A
5828,4462998000.00,ACK
5829,4463033000.00,Data read: B6
5830,4463270000.00,ACK
5831,4463306000.00,Data read: CD
5832,4463538000.00,NACK
5833,4463577000.00,Stop
5834,4472877000.00,Start
5835,4472897000.00,Address write: A0
5836,4473083000.00,Write
5837,4473118000.00,ACK
5838,4473169000.00,Data write: 05
5839,4473395000.00,ACK
5840,4473445000.00,Start repeat
5841,4473465000.00,Address read: A1
5842,4473651000.00,Read
5843,4473686000.00,ACK
5844,4473738000.00,Data read: 8A
5845,4473982000.00,ACK
5846,4474018000.00,Data read: B7
5847,4474255000.00,ACK
5848,4474291000.00,Data read: F3
5849,4474522000.00,NACK
5850,4474562000.00,Stop
5851,4483866000.00,Start
5852,4483886000.00,Address write: A0
5853,4484072000.00,Write
5854,4484107000.00,ACK
5855,4484158000.00,Data write: 05
5856,4484384000.00,ACK
5857,4484434000.00,Start repeat
5858,4484454000.00,Address read: A1
5859,4484640000.00,Read
5860,4484675000.00,ACK
5861,4484727000.00,Data read: 8A
5862,4484971000.00,ACK
5863,4485006000.00,Data read: B6
5864,4485243000.00,ACK
5865,4485279000.00,Data read: 0D
5866,4485511000.00,NACK
5867,4485550000.00,Stop
5868,4485572000.00,Start
5869,4485593000.00,Address write: A0
5870,4485783000.00,Write
5871,4485820000.00,ACK
5872,4485881000.00,Data write: 01
5873,4486103000.00,ACK
5874,4486153000.00,Data write: 32
5875,4486379000.00,ACK
5876,4486429000.00,Stop
5877,4496845000.00,Start
5878,4496866000.00,Address write: A0
5879,4497052000.00,Write
5880,4497087000.00,ACK
5881,4497138000.00,Data write: 05
5882,4497364000.00,ACK
5883,4497414000.00,Start repeat
5884,4497434000.00,Address read: A1
5885,4497620000.00,Read
5886,4497655000.00,ACK
5887,4497707000.00,Data read: 8A
5888,4497951000.00,ACK
5889,4497987000.00,Data read: B6
5890,4498223000.00,ACK
5891,4498259000.00,Data read: 0C
5892,4498491000.00,NACK
5893,4498530000.00,Stop
5894,4507834000.00,Start
5895,4507855000.00,Address write: A0
5896,4508040000.00,Write
5897,4508076000.00,ACK
5898,4508126000.00,Data write: 05
5899,4508352000.00,ACK
5900,4508402000.00,Start repeat
5901,4508423000.00,Address read: A1
5902,4508608000.00,Read
5903,4508644000.00,ACK
5904,4508696000.00,Data read: 8A
5905,4508939000.00,ACK
5906,4508975000.00,Data read: B6
5907,4509212000.00,ACK
5908,4509248000.00,Data read: 0C
5909,4509480000.00,NACK
5910,4509519000.00,Stop
5911,4518816000.00,Start
5912,4518836000.00,Address write: A0
5913,4519022000.00,Write
5914,4519057000.00,ACK
5915,4519108000.00,Data write: 05
5916,4519334000.00,ACK
5917,4519384000.00,Start repeat
5918,4519404000.00,Address read: A1
5919,4519590000.00,Read
5920,4519625000.00,ACK
5921,4519677000.00,Data read: E0
5922,4519921000.00,ACK
5923,4519956000.00,Data read: E7
5924,4520193000.00,ACK
5925,4520229000.00,Data read: 83
5926,4520461000.00,NACK
5927,4520500000.00,Stop
5928,4529797000.00,Start
5929,4529818000.00,Address write: A0
5930,4530003000.00,Write
5931,4530039000.00,ACK
5932,4530089000.00,Data write: 05
5933,4530315000.00,ACK
5934,4530365000.00,Start repeat
5935,4530386000.00,Address read: A1
5936,4530572000.00,Read
5937,4530607000.00,ACK
5938,4530659000.00,Data read: E0
5939,4530903000.00,ACK
5940,4530938000.00,Data read: E8
5941,4531175000.00,ACK
5942,4531211000.00,Data read: 4F
5943,4531443000.00,NACK
5944,4531482000.00,Stop
5945,4540790000.00,Start
5946,4540811000.00,Address write: A0
5947,4540997000.00,Write
5948,4541032000.00,ACK
5949,4541082000.00,Data write: 05
5950,4541309000.00,ACK
5951,4541358000.00,Start repeat
5952,4541379000.00,Address read: A1
5953,4541565000.00,Read
5954,4541600000.00,ACK
5955,4541652000.00,Data read: E0
5956,4541896000.00,ACK
5957,4541932000.00,Data read: E4
5958,4542169000.00,ACK
5959,4542204000.00,Data read: E5
5960,4542436000.00,NACK
5961,4542476000.00,Stop
5962,4569982000.00,Start
5963,4570002000.00,Address write: A0
5964,4570193000.00,Write
5965,4570228000.00,ACK
5966,4570279000.00,Data write: 05
5967,4570500000.00,ACK
5968,4570550000.00,Start repeat
5969,4570571000.00,Address read: A1
5970,4570773000.00,Read
5971,4570809000.00,ACK
5972,4570855000.00,Data read: E0
5973,4571087000.00,ACK
5974,4571128000.00,Data read: E1
5975,4571360000.00,ACK
5976,4571396000.00,Data read: 5D
5977,4571633000.00,NACK
5978,4571672000.00,Stop
5979,4580737000.00,Start
5980,4580758000.00,Address write: A0
5981,4580944000.00,Write
5982,4580979000.00,ACK
5983,4581029000.00,Data write: 05
5984,4581255000.00,ACK
5985,4581305000.00,Start repeat
5986,4581326000.00,Address read: A1
5987,4581512000.00,Read
5988,4581547000.00,ACK
5989,4581599000.00,Data read: E0
5990,4581842000.00,ACK
5991,4581878000.00,Data read: E0
5992,4582115000.00,ACK
5993,4582151000.00,Data read: 21
5994,4582382000.00,NACK
5995,4582422000.00,Stop
5996,4591723000.00,Start
5997,4591744000.00,Address write: A0
5998,4591930000.00,Write
5999,4591965000.00,ACK
6000,4592016000.00,Data write: 05
6001,4592242000.00,ACK
6002,4592292000.00,Start repeat
6003,4592312000.00,Address read: A1
6004,4592498000.00,Read
6005,4592533000.00,ACK
6006,4592585000.00,Data read: E0
6007,4592829000.00,ACK
6008,4592865000.00,Data read: E2
6009,4593102000.00,ACK
6010,4593137000.00,Data read: 35
6011,4593369000.00,NACK
6012,4593409000.00,Stop
6013,4602707000.00,Start
6014,4602727000.00,Address write: A0
6015,4602913000.00,Write
6016,4602948000.00,ACK
6017,4602999000.00,Data write: 05
6018,4603225000.00,ACK
6019,4603274000.00,Start repeat
6020,4603295000.00,Address read: A1
6021,4603481000.00,Read
6022,4603516000.00,ACK
6023,4603568000.00,Data read: E0
6024,4603812000.00,ACK
6025,4603848000.00,Data read: E1
6026,4604084000.00,ACK
6027,4604120000.00,Data read: 59
6028,4604352000.00,NACK
6029,4604392000.00,Stop
6030,4613692000.00,Start
6031,4613713000.00,Address write: A0
6032,4613898000.00,Write
6033,4613934000.00,ACK
6034,4613984000.00,Data write: 05
6035,4614210000.00,ACK
6036,4614260000.00,Start repeat
6037,4614281000.00,Address read: A1
6038,4614467000.00,Read
6039,4614502000.00,ACK
6040,4614554000.00,Data read: E0
6041,4614798000.00,ACK
6042,4614833000.00,Data read: E2
6043,4615070000.00,ACK
6044,4615106000.00,Data read: FB
6045,4615338000.00,NACK
6046,4615378000.00,Stop
6047,4624684000.00,Start
6048,4624705000.00,Address write: A0
6049,4624890000.00,Write
6050,4624926000.00,ACK
6051,4624976000.00,Data write: 05
6052,4625202000.00,ACK
6053,4625252000.00,Start repeat
6054,4625273000.00,Address read: A1
6055,4625458000.00,Read
6056,4625494000.00,ACK
6057,4625546000.00,Data read: E0
6058,4625789000.00,ACK
6059,4625825000.00,Data read: E1
6060,4626062000.00,ACK
6061,4626098000.00,Data read: CF
6062,4626330000.00,NACK
6063,4626369000.00,Stop
6064,4635669000.00,Start
6065,4635689000.00,Address write: A0
6066,4635875000.00,Write
6067,4635910000.00,ACK
6068,4635961000.00,Data write: 05
6069,4636187000.00,ACK
6070,4636237000.00,Start repeat
6071,4636257000.00,Address read: A1
6072,4636443000.00,Read
6073,4636479000.00,ACK
6074,4636530000.00,Data read: E0
6075,4636774000.00,ACK
6076,4636810000.00,Data read: E4
6077,4637047000.00,ACK
6078,4637083000.00,Data read: 67
6079,4637315000.00,NACK
6080,4637354000.00,Stop
6081,4637376000.00,Start
6082,4637397000.00,Address write: A0
6083,4637588000.00,Write
6084,4637624000.00,ACK
6085,4637685000.00,Data write: 01
6086,4637906000.00,ACK
6087,4637957000.00,Data write: 33
6088,4638183000.00,ACK
6089,4638233000.00,Stop
6090,4647660000.00,Start
6091,4647680000.00,Address write: A0
6092,4647866000.00,Write
6093,4647901000.00,ACK
6094,4647952000.00,Data write: 05
6095,4648178000.00,ACK
6096,4648228000.00,Start repeat
6097,4648248000.00,Address read: A1
6098,4648434000.00,Read
6099,4648469000.00,ACK
6100,4648521000.00,Data read: E0
6101,4648765000.00,ACK
6102,4648801000.00,Data read: E4
6103,4649037000.00,ACK
6104,4649073000.00,Data read: 66
6105,4649305000.00,NACK
6106,4649344000.00,Stop
6107,4658644000.00,Start
6108,4658665000.00,Address write: A0
6109,4658850000.00,Write
6110,4658886000.00,ACK
6111,4658936000.00,Data write: 05
6112,4659163000.00,ACK
6113,4659212000.00,Start repeat
6114,4659233000.00,Address read: A1
6115,4659419000.00,Read
6116,4659454000.00,ACK
6117,4659506000.00,Data read: E0
6118,4659750000.00,ACK
6119,4659786000.00,Data read: E4
6120,4660023000.00,ACK
6121,4660059000.00,Data read: 66
6122,4660290000.00,NACK
6123,4660330000.00,Stop
6124,4688837000.00,Start
6125,4688858000.00,Address write: A0
6126,4689049000.00,Write
6127,4689084000.00,ACK
6128,4689135000.00,Data write: 05
6129,4689356000.00,ACK
6130,4689406000.00,Start repeat
6131,4689426000.00,Address read: A1
6132,4689629000.00,Read
6133,4689664000.00,ACK
6134,4689711000.00,Data read: 9F
6135,4689943000.00,ACK
6136,4689984000.00,Data read: 89
6137,4690216000.00,ACK
6138,4690251000.00,Data read: 27
6139,4690488000.00,NACK
6140,4690528000.00,Stop
6141,4699596000.00,Start
6142,4699616000.00,Address write: A0
6143,4699802000.00,Write
6144,4699837000.00,ACK
6145,4699888000.00,Data write: 05
6146,4700114000.00,ACK
6147,4700164000.00,Start repeat
6148,4700185000.00,Address read: A1
6149,4700370000.00,Read
6150,4700406000.00,ACK
6151,4700457000.00,Data read: 9F
6152,4700701000.00,ACK
6153,4700737000.00,Data read: 80
6154,4700974000.00,ACK
6155,4701010000.00,Data read: 65
6156,4701242000.00,NACK
6157,4701281000.00,Stop
6158,4710587000.00,Start
6159,4710608000.00,Address write: A0
6160,4710793000.00,Write
6161,4710829000.00,ACK
6162,4710879000.00,Data write: 05
6163,4711105000.00,ACK
6164,4711155000.00,Start repeat
6165,4711176000.00,Address read: A1
6166,4711361000.00,Read
6167,4711397000.00,ACK
6168,4711448000.00,Data read: 9F
6169,4711692000.00,ACK
6170,4711728000.00,Data read: 87
6171,4711965000.00,ACK
6172,4712001000.00,Data read: 67
6173,4712232000.00,NACK
6174,4712272000.00,Stop
6175,4721569000.00,Start
6176,4721590000.00,Address write: A0
6177,4721775000.00,Write
6178,4721811000.00,ACK
6179,4721861000.00,Data write: 05
6180,4722087000.00,ACK
6181,4722137000.00,Start repeat
6182,4722158000.00,Address read: A1
6183,4722344000.00,Read
6184,4722379000.00,ACK
6185,4722431000.00,Data read: 9F
6186,4722675000.00,ACK
6187,4722711000.00,Data read: 83
6188,4722947000.00,ACK
6189,4722983000.00,Data read: ED
6190,4723215000.00,NACK
6191,4723255000.00,Stop
6192,4732554000.00,Start
6193,4732574000.00,Address write: A0
6194,4732760000.00,Write
6195,4732795000.00,ACK
6196,4732846000.00,Data write: 05
6197,4733072000.00,ACK
6198,4733122000.00,Start repeat
6199,4733142000.00,Address read: A1
6200,4733328000.00,Read
6201,4733363000.00,ACK
6202,4733415000.00,Data read: 9F
6203,4733659000.00,ACK
6204,4733695000.00,Data read: 87
6205,4733931000.00,ACK
6206,4733967000.00,Data read: 9F
6207,4734199000.00,NACK
6208,4734238000.00,Stop
6209,4743541000.00,Start
6210,4743562000.00,Address write: A0
6211,4743748000.00,Write
6212,4743783000.00,ACK
6213,4743833000.00,Data write: 05
6214,4744060000.00,ACK
6215,4744110000.00,Start repeat
6216,4744130000.00,Address read: A1
6217,4744316000.00,Read
6218,4744351000.00,ACK
6219,4744403000.00,Data read: 9F
6220,4744647000.00,ACK
6221,4744683000.00,Data read: 7F
6222,4744920000.00,ACK
6223,4744956000.00,Data read: DD
6224,4745187000.00,NACK
6225,4745227000.00,Stop
6226,4754528000.00,Start
6227,4754548000.00,Address write: A0
6228,4754734000.00,Write
6229,4754769000.00,ACK
6230,4754820000.00,Data write: 05
6231,4755046000.00,ACK
6232,4755096000.00,Start repeat
6233,4755116000.00,Address read: A1
6234,4755302000.00,Read
6235,4755337000.00,ACK
6236,4755389000.00,Data read: 9F
6237,4755633000.00,ACK
6238,4755669000.00,Data read: 88
6239,4755906000.00,ACK
6240,4755942000.00,Data read: 4D
6241,4756173000.00,NACK
6242,4756213000.00,Stop
6243,4765515000.00,Start
6244,4765535000.00,Address write: A0
6245,4765721000.00,Write
6246,4765756000.00,ACK
6247,4765807000.00,Data write: 05
6248,4766033000.00,ACK
6249,4766082000.00,Start repeat
6250,4766103000.00,Address read: A1
6251,4766289000.00,Read
6252,4766324000.00,ACK
6253,4766376000.00,Data read: 9F
6254,4766620000.00,ACK
6255,4766655000.00,Data read: 85
6256,4766892000.00,ACK
6257,4766928000.00,Data read: CD
6258,4767160000.00,NACK
6259,4767199000.00,Stop
6260,4776506000.00,Start
6261,4776526000.00,Address write: A0
6262,4776712000.00,Write
6263,4776747000.00,ACK
6264,4776798000.00,Data write: 05
6265,4777024000.00,ACK
6266,4777074000.00,Start repeat
6267,4777094000.00,Address read: A1
6268,4777280000.00,Read
6269,4777315000.00,ACK
6270,4777367000.00,Data read: 9F
6271,4777611000.00,ACK
6272,4777647000.00,Data read: 84
6273,4777884000.00,ACK
6274,4777920000.00,Data read: B7
6275,4778152000.00,NACK
6276,4778191000.00,Stop
6277,4787489000.00,Start
6278,4787509000.00,Address write: A0
6279,4787695000.00,Write
6280,4787730000.00,ACK
6281,4787781000.00,Data write: 05
6282,4788007000.00,ACK
6283,4788057000.00,Start repeat
6284,4788077000.00,Address read: A1
6285,4788263000.00,Read
6286,4788298000.00,ACK
6287,4788350000.00,Data read: 9F
6288,4788594000.00,ACK
6289,4788630000.00,Data read: 81
6290,4788866000.00,ACK
6291,4788902000.00,Data read: D5
6292,4789134000.00,NACK
6293,4789173000.00,Stop
6294,4789196000.00,Start
6295,4789216000.00,Address write: A0
6296,4789407000.00,Write
6297,4789443000.00,ACK
6298,4789505000.00,Data write: 01
6299,4789726000.00,ACK
6300,4789776000.00,Data write: 31
6301,4790002000.00,ACK
6302,4790052000.00,Stop
6303,4809494000.00,Start
6304,4809515000.00,Address write: A0
6305,4809701000.00,Write
6306,4809736000.00,ACK
6307,4809786000.00,Data write: 05
6308,4810013000.00,ACK
6309,4810062000.00,Start repeat
6310,4810083000.00,Address read: A1
6311,4810269000.00,Read
6312,4810309000.00,ACK
6313,4810356000.00,Data read: 9F
6314,4810600000.00,ACK
6315,4810636000.00,Data read: 81
6316,4810873000.00,ACK
6317,4810908000.00,Data read: D4
6318,4811140000.00,NACK
6319,4811180000.00,Stop
6320,4820440000.00,Start
6321,4820460000.00,Address write: A0
6322,4820646000.00,Write
6323,4820681000.00,ACK
6324,4820732000.00,Data write: 05
6325,4820958000.00,ACK
6326,4821007000.00,Start repeat
6327,4821028000.00,Address read: A1
6328,4821214000.00,Read
6329,4821249000.00,ACK
6330,4821301000.00,Data read: 8A
6331,4821544000.00,ACK
6332,4821580000.00,Data read: CA
6333,4821817000.00,ACK
6334,4821853000.00,Data read: 73
6335,4822085000.00,NACK
6336,4822124000.00,Stop
6337,4831429000.00,Start
6338,4831450000.00,Address write: A0
6339,4831636000.00,Write
6340,4831671000.00,ACK
6341,4831722000.00,Data write: 05
6342,4831948000.00,ACK
6343,4831998000.00,Start repeat
6344,4832018000.00,Address read: A1
6345,4832204000.00,Read
6346,4832239000.00,ACK
6347,4832291000.00,Data read: 8A
6348,4832535000.00,ACK
6349,4832571000.00,Data read: C3
6350,4832808000.00,ACK
6351,4832844000.00,Data read: 6B
6352,4833076000.00,NACK
6353,4833115000.00,Stop
6354,4842416000.00,Start
6355,4842437000.00,Address write: A0
6356,4842623000.00,Write
6357,4842658000.00,ACK
6358,4842709000.00,Data write: 05
6359,4842935000.00,ACK
6360,4842985000.00,Start repeat
6361,4843005000.00,Address read: A1
6362,4843191000.00,Read
6363,4843226000.00,ACK
6364,4843278000.00,Data read: 8A
6365,4843522000.00,ACK
6366,4843558000.00,Data read: BC
6367,4843795000.00,ACK
6368,4843831000.00,Data read: 79
6369,4844063000.00,NACK
6370,4844102000.00,Stop
6371,4853402000.00,Start
6372,4853422000.00,Address write: A0
6373,4853608000.00,Write
6374,4853643000.00,ACK
6375,4853694000.00,Data write: 05
6376,4853920000.00,ACK
6377,4853970000.00,Start repeat
6378,4853991000.00,Address read: A1
6379,4854176000.00,Read
6380,4854212000.00,ACK
6381,4854263000.00,Data read: 8A
6382,4854507000.00,ACK
6383,4854543000.00,Data read: BC
6384,4854780000.00,ACK
6385,4854816000.00,Data read: 89
6386,4855047000.00,NACK
6387,4855087000.00,Stop
6388,4864393000.00,Start
6389,4864413000.00,Address write: A0
6390,4864599000.00,Write
6391,4864634000.00,ACK
6392,4864685000.00,Data write: 05
6393,4864911000.00,ACK
6394,4864961000.00,Start repeat
6395,4864982000.00,Address read: A1
6396,4865167000.00,Read
6397,4865203000.00,ACK
6398,4865254000.00,Data read: 8A
6399,4865498000.00,ACK
6400,4865534000.00,Data read: BC
6401,4865771000.00,ACK
6402,4865807000.00,Data read: 7D
6403,4866039000.00,NACK
6404,4866078000.00,Stop
6405,4875376000.00,Start
6406,4875397000.00,Address write: A0
6407,4875582000.00,Write
6408,4875618000.00,ACK
6409,4875668000.00,Data write: 05
6410,4875894000.00,ACK
6411,4875944000.00,Start repeat
6412,4875965000.00,Address read: A1
6413,4876150000.00,Read
6414,4876186000.00,ACK
6415,4876237000.00,Data read: 8A
6416,4876481000.00,ACK
6417,4876517000.00,Data read: B9
6418,4876754000.00,ACK
6419,4876790000.00,Data read: 4B
6420,4877022000.00,NACK
6421,4877061000.00,Stop
6422,4886362000.00,Start
6423,4886383000.00,Address write: A0
6424,4886568000.00,Write
6425,4886604000.00,ACK
6426,4886654000.00,Data write: 05
6427,4886880000.00,ACK
6428,4886930000.00,Start repeat
6429,4886951000.00,Address read: A1
6430,4887136000.00,Read
6431,4887172000.00,ACK
6432,4887223000.00,Data read: 8A
6433,4887467000.00,ACK
6434,4887503000.00,Data read: B9
6435,4887740000.00,ACK
6436,4887776000.00,Data read: E3
6437,4888007000.00,NACK
6438,4888047000.00,Stop
6439,4897354000.00,Start
6440,4897375000.00,Address write: A0
6441,4897560000.00,Write
6442,4897596000.00,ACK
6443,4897646000.00,Data write: 05
6444,4897872000.00,ACK
6445,4897922000.00,Start repeat
6446,4897943000.00,Address read: A1
6447,4898128000.00,Read
6448,4898164000.00,ACK
6449,4898216000.00,Data read: 8A
6450,4898459000.00,ACK
6451,4898495000.00,Data read: B6
6452,4898732000.00,ACK
6453,4898768000.00,Data read: CB
6454,4899000000.00,NACK
6455,4899040000.00,Stop
6456,4908338000.00,Start
6457,4908359000.00,Address write: A0
6458,4908544000.00,Write
6459,4908580000.00,ACK
6460,4908630000.00,Data write: 05
6461,4908856000.00,ACK
6462,4908906000.00,Start repeat
6463,4908927000.00,Address read: A1
6464,4909112000.00,Read
6465,4909148000.00,ACK
6466,4909200000.00,Data read: 8A
6467,4909443000.00,ACK
6468,4909479000.00,Data read: B8
6469,4909716000.00,ACK
6470,4909752000.00,Data read: 11
6471,4909984000.00,NACK
6472,4910023000.00,Stop
6473,4929258000.00,Start
6474,4929278000.00,Address write: A0
6475,4929475000.00,Write
6476,4929511000.00,ACK
6477,4929561000.00,Data write: 05
6478,4929787000.00,ACK
6479,4929837000.00,Start repeat
6480,4929858000.00,Address read: A1
6481,4930043000.00,Read
6482,4930079000.00,ACK
6483,4930125000.00,Data read: 8A
6484,4930374000.00,ACK
6485,4930410000.00,Data read: B5
6486,4930642000.00,ACK
6487,4930683000.00,Data read: 55
6488,4930915000.00,NACK
6489,4930954000.00,Stop
6490,4930976000.00,Start
6491,4930997000.00,Address write: A0
6492,4931188000.00,Write
6493,4931223000.00,ACK
6494,4931274000.00,Data write: 01
6495,4931507000.00,ACK
6496,4931557000.00,Data write: 32
6497,4931783000.00,ACK
6498,4931833000.00,Stop
6499,4942294000.00,Start
6500,4942315000.00,Address write: A0
6501,4942501000.00,Write
6502,4942536000.00,ACK
6503,4942587000.00,Data write: 05
6504,4942813000.00,ACK
6505,4942863000.00,Start repeat
6506,4942883000.00,Address read: A1
6507,4943069000.00,Read
6508,4943105000.00,ACK
6509,4943156000.00,Data read: 8A
6510,4943400000.00,ACK
6511,4943436000.00,Data read: B5
6512,4943673000.00,ACK
6513,4943709000.00,Data read: 54
6514,4943941000.00,NACK
6515,4943980000.00,Stop
6516,4953285000.00,Start
6517,4953306000.00,Address write: A0
6518,4953491000.00,Write
6519,4953527000.00,ACK
6520,4953577000.00,Data write: 05
6521,4953803000.00,ACK
6522,4953853000.00,Start repeat
6523,4953874000.00,Address read: A1
6524,4954060000.00,Read
6525,4954095000.00,ACK
6526,4954147000.00,Data read: 8A
6527,4954391000.00,ACK
6528,4954426000.00,Data read: B5
6529,4954663000.00,ACK
6530,4954699000.00,Data read: 54
6531,4954931000.00,NACK
6532,4954970000.00,Stop
6533,4964268000.00,Start
6534,4964289000.00,Address write: A0
6535,4964474000.00,Write
6536,4964510000.00,ACK
6537,4964560000.00,Data write: 05
6538,4964786000.00,ACK
6539,4964836000.00,Start repeat
6540,4964857000.00,Address read: A1
6541,4965043000.00,Read
6542,4965078000.00,ACK
6543,4965130000.00,Data read: E0
6544,4965374000.00,ACK
6545,4965410000.00,Data read: E0
6546,4965646000.00,ACK
6547,4965682000.00,Data read: 8D
6548,4965914000.00,NACK
6549,4965954000.00,Stop
6550,4975261000.00,Start
6551,4975282000.00,Address write: A0
6552,4975467000.00,Write
6553,4975503000.00,ACK
6554,4975553000.00,Data write: 05
6555,4975780000.00,ACK
6556,4975829000.00,Start repeat
6557,4975850000.00,Address read: A1
6558,4976036000.00,Read
6559,4976071000.00,ACK
6560,4976123000.00,Data read: E0
6561,4976367000.00,ACK
6562,4976403000.00,Data read: DB
6563,4976640000.00,ACK
6564,4976676000.00,Data read: A1
6565,4976907000.00,NACK
6566,4976947000.00,Stop
6567,4986247000.00,Start
6568,4986268000.00,Address write: A0
6569,4986453000.00,Write
6570,4986489000.00,ACK
6571,4986539000.00,Data write: 05
6572,4986765000.00,ACK
6573,4986815000.00,Start repeat
6574,4986836000.00,Address read: A1
6575,4987022000.00,Read
6576,4987057000.00,ACK
6577,4987109000.00,Data read: E0
6578,4987353000.00,ACK
6579,4987389000.00,Data read: D7
6580,4987626000.00,ACK
6581,4987662000.00,Data read: F3
6582,4987893000.00,NACK
6583,4987933000.00,Stop
6584,4997231000.00,Start
6585,4997252000.00,Address write: A0
6586,4997437000.00,Write
6587,4997473000.00,ACK
6588,4997523000.00,Data write: 05
6589,4997749000.00,ACK
6590,4997799000.00,Start repeat
6591,4997820000.00,Address read: A1
6592,4998006000.00,Read
6593,4998041000.00,ACK
6594,4998093000.00,Data read: E0
6595,4998337000.00,ACK
6596,4998373000.00,Data read: D8
6597,4998610000.00,ACK
6598,4998645000.00,Data read: 83
6599,4998877000.00,NACK
6600,4998917000.00,Stop
6601,5008224000.00,Start
6602,5008244000.00,Address write: A0
6603,5008430000.00,Write
6604,5008465000.00,ACK
6605,5008516000.00,Data write: 05
6606,5008742000.00,ACK
6607,5008792000.00,Start repeat
6608,5008812000.00,Address read: A1
6609,5008998000.00,Read
6610,5009033000.00,ACK
6611,5009085000.00,Data read: E0
6612,5009329000.00,ACK
6613,5009365000.00,Data read: DB
6614,5009602000.00,ACK
6615,5009637000.00,Data read: 3B
6616,5009869000.00,NACK
6617,5009909000.00,Stop
6618,5019210000.00,Start
6619,5019230000.00,Address write: A0
6620,5019416000.00,Write
6621,5019451000.00,ACK
6622,5019502000.00,Data write: 05
6623,5019728000.00,ACK
6624,5019778000.00,Start repeat
6625,5019798000.00,Address read: A1
6626,5019984000.00,Read
6627,5020019000.00,ACK
6628,5020071000.00,Data read: E0
6629,5020315000.00,ACK
6630,5020351000.00,Data read: D8
6631,5020587000.00,ACK
6632,5020623000.00,Data read: 43
6633,5020855000.00,NACK
6634,5020894000.00,Stop
6635,5047387000.00,Start
6636,5047408000.00,Address write: A0
6637,5047598000.00,Write
6638,5047634000.00,ACK
6639,5047684000.00,Data write: 05
6640,5047905000.00,ACK
6641,5047955000.00,Start repeat
6642,5047976000.00,Address read: A1
6643,5048178000.00,Read
6644,5048214000.00,ACK
6645,5048260000.00,Data read: E0
6646,5048492000.00,ACK
6647,5048533000.00,Data read: D8
6648,5048765000.00,ACK
6649,5048800000.00,Data read: 6D
6650,5049037000.00,NACK
6651,5049077000.00,Stop
6652,5058150000.00,Start
6653,5058171000.00,Address write: A0
6654,5058356000.00,Write
6655,5058392000.00,ACK
6656,5058442000.00,Data write: 05
6657,5058668000.00,ACK
6658,5058718000.00,Start repeat
6659,5058739000.00,Address read: A1
6660,5058925000.00,Read
6661,5058960000.00,ACK
6662,5059012000.00,Data read: E0
6663,5059256000.00,ACK
6664,5059292000.00,Data read: DB
6665,5059529000.00,ACK
6666,5059564000.00,Data read: 4F
6667,5059796000.00,NACK
6668,5059836000.00,Stop
6669,5069143000.00,Start
6670,5069163000.00,Address write: A0
6671,5069349000.00,Write
6672,5069384000.00,ACK
6673,5069435000.00,Data write: 05
6674,5069661000.00,ACK
6675,5069711000.00,Start repeat
6676,5069731000.00,Address read: A1
6677,5069917000.00,Read
6678,5069952000.00,ACK
6679,5070004000.00,Data read: E0
6680,5070248000.00,ACK
6681,5070284000.00,Data read: DD
6682,5070521000.00,ACK
6683,5070557000.00,Data read: 2D
6684,5070789000.00,NACK
6685,5070828000.00,Stop
6686,5080128000.00,Start
6687,5080148000.00,Address write: A0
6688,5080334000.00,Write
6689,5080369000.00,ACK
6690,5080420000.00,Data write: 05
6691,5080646000.00,ACK
6692,5080696000.00,Start repeat
6693,5080717000.00,Address read: A1
6694,5080902000.00,Read
6695,5080938000.00,ACK
6696,5080989000.00,Data read: E0
6697,5081233000.00,ACK
6698,5081269000.00,Data read: DB
6699,5081506000.00,ACK
6700,5081542000.00,Data read: 13
6701,5081774000.00,NACK
6702,5081813000.00,Stop
6703,5081835000.00,Start
6704,5081856000.00,Address write: A0
6705,5082046000.00,Write
6706,5082083000.00,ACK
6707,5082144000.00,Data write: 01
6708,5082365000.00,ACK
6709,5082416000.00,Data write: 33
6710,5082642000.00,ACK
6711,5082692000.00,Stop
6712,5092112000.00,Start
6713,5092132000.00,Address write: A0
6714,5092318000.00,Write
6715,5092353000.00,ACK
6716,5092404000.00,Data write: 05
6717,5092630000.00,ACK
6718,5092680000.00,Start repeat
6719,5092701000.00,Address read: A1
6720,5092886000.00,Read
6721,5092922000.00,ACK
6722,5092973000.00,Data read: E0
6723,5093217000.00,ACK
6724,5093253000.00,Data read: DB
6725,5093490000.00,ACK
6726,5093526000.00,Data read: 12
6727,5093758000.00,NACK
6728,5093797000.00,Stop
6729,5103096000.00,Start
6730,5103117000.00,Address write: A0
6731,5103302000.00,Write
6732,5103338000.00,ACK
6733,5103388000.00,Data write: 05
6734,5103614000.00,ACK
6735,5103664000.00,Start repeat
6736,5103685000.00,Address read: A1
6737,5103870000.00,Read
6738,5103906000.00,ACK
6739,5103957000.00,Data read: E0
6740,5104201000.00,ACK
6741,5104237000.00,Data read: DB
6742,5104474000.00,ACK
6743,5104510000.00,Data read: 12
6744,5104742000.00,NACK
6745,5104781000.00,Stop
6746,5114087000.00,Start
6747,5114108000.00,Address write: A0
6748,5114293000.00,Write
6749,5114329000.00,ACK
6750,5114379000.00,Data write: 05
6751,5114605000.00,ACK
6752,5114655000.00,Start repeat
6753,5114676000.00,Address read: A1
6754,5114862000.00,Read
6755,5114897000.00,ACK
6756,5114949000.00,Data read: 9F
6757,5115193000.00,ACK
6758,5115229000.00,Data read: 84
6759,5115465000.00,ACK
6760,5115501000.00,Data read: 2B
6761,5115733000.00,NACK
6762,5115773000.00,Stop
6763,5125072000.00,Start
6764,5125093000.00,Address write: A0
6765,5125278000.00,Write
6766,5125314000.00,ACK
6767,5125364000.00,Data write: 05
6768,5125590000.00,ACK
6769,5125640000.00,Start repeat
6770,5125661000.00,Address read: A1
6771,5125847000.00,Read
6772,5125882000.00,ACK
6773,5125934000.00,Data read: 9F
6774,5126178000.00,ACK
6775,5126213000.00,Data read: 81
6776,5126450000.00,ACK
6777,5126486000.00,Data read: F7
6778,5126718000.00,NACK
6779,5126757000.00,Stop
6780,5136064000.00,Start
6781,5136084000.00,Address write: A0
6782,5136270000.00,Write
6783,5136305000.00,ACK
6784,5136355000.00,Data write: 05
6785,5136581000.00,ACK
6786,5136631000.00,Start repeat
6787,5136652000.00,Address read: A1
6788,5136837000.00,Read
6789,5136873000.00,ACK
6790,5136924000.00,Data read: 9F
6791,5137168000.00,ACK
6792,5137204000.00,Data read: 7F
6793,5137441000.00,ACK
6794,5137477000.00,Data read: F9
6795,5137708000.00,NACK
6796,5137748000.00,Stop
6797,5166250000.00,Start
6798,5166270000.00,Address write: A0
6799,5166461000.00,Write
6800,5166496000.00,ACK
6801,5166547000.00,Data write: 05
6802,5166768000.00,ACK
6803,5166818000.00,Start repeat
6804,5166838000.00,Address read: A1
6805,5167041000.00,Read
6806,5167077000.00,ACK
6807,5167123000.00,Data read: 9F
6808,5167355000.00,ACK
6809,5167396000.00,Data read: 7B
6810,5167628000.00,ACK
6811,5167664000.00,Data read: 49
6812,5167900000.00,NACK
6813,5167940000.00,Stop
6814,5177015000.00,Start
6815,5177035000.00,Address write: A0
6816,5177221000.00,Write
6817,5177256000.00,ACK
6818,5177307000.00,Data write: 05
6819,5177533000.00,ACK
6820,5177583000.00,Start repeat
6821,5177603000.00,Address read: A1
6822,5177789000.00,Read
6823,5177824000.00,ACK
6824,5177876000.00,Data read: 9F
6825,5178120000.00,ACK
6826,5178156000.00,Data read: 7C
6827,5178393000.00,ACK
6828,5178429000.00,Data read: E1
6829,5178660000.00,NACK
6830,5178700000.00,Stop
6831,5188000000.00,Start
6832,5188020000.00,Address write: A0
6833,5188206000.00,Write
6834,5188241000.00,ACK
6835,5188292000.00,Data write: 05
6836,5188518000.00,ACK
6837,5188568000.00,Start repeat
6838,5188588000.00,Address read: A1
6839,5188774000.00,Read
6840,5188809000.00,ACK
6841,5188861000.00,Data read: 9F
6842,5189105000.00,ACK
6843,5189141000.00,Data read: 80
6844,5189378000.00,ACK
6845,5189414000.00,Data read: 6F
6846,5189646000.00,NACK
6847,5189685000.00,Stop
6848,5198992000.00,Start
6849,5199012000.00,Address write: A0
6850,5199198000.00,Write
6851,5199233000.00,ACK
6852,5199284000.00,Data write: 05
6853,5199510000.00,ACK
6854,5199560000.00,Start repeat
6855,5199580000.00,Address read: A1
6856,5199766000.00,Read
6857,5199801000.00,ACK
6858,5199853000.00,Data read: 9F
6859,5200097000.00,ACK
6860,5200133000.00,Data read: 80
6861,5200370000.00,ACK
6862,5200406000.00,Data read: 97
6863,5200638000.00,NACK
6864,5200677000.00,Stop
6865,5209975000.00,Start
6866,5209995000.00,Address write: A0
6867,5210181000.00,Write
6868,5210216000.00,ACK
6869,5210267000.00,Data write: 05
6870,5210493000.00,ACK
6871,5210543000.00,Start repeat
6872,5210564000.00,Address read: A1
6873,5210749000.00,Read
6874,5210785000.00,ACK
6875,5210836000.00,Data read: 9F
6876,5211080000.00,ACK
6877,5211116000.00,Data read: 83
6878,5211353000.00,ACK
6879,5211389000.00,Data read: 17
6880,5211621000.00,NACK
6881,5211660000.00,Stop
6882,5220967000.00,Start
6883,5220988000.00,Address write: A0
6884,5221173000.00,Write
6885,5221209000.00,ACK
6886,5221259000.00,Data write: 05
6887,5221485000.00,ACK
6888,5221535000.00,Start repeat
6889,5221556000.00,Address read: A1
6890,5221741000.00,Read
6891,5221777000.00,ACK
6892,5221828000.00,Data read: 9F
6893,5222072000.00,ACK
6894,5222108000.00,Data read: 79
6895,5222345000.00,ACK
6896,5222381000.00,Data read: EF
6897,5222613000.00,NACK
6898,5222652000.00,Stop
6899,5231951000.00,Start
6900,5231972000.00,Address write: A0
6901,5232157000.00,Write
6902,5232193000.00,ACK
6903,5232243000.00,Data write: 05
6904,5232469000.00,ACK
6905,5232519000.00,Start repeat
6906,5232540000.00,Address read: A1
6907,5232725000.00,Read
6908,5232761000.00,ACK
6909,5232812000.00,Data read: 9F
6910,5233056000.00,ACK
6911,5233092000.00,Data read: 81
6912,5233329000.00,ACK
6913,5233364000.00,Data read: BB
6914,5233596000.00,NACK
6915,5233636000.00,Stop
6916,5233658000.00,Start
6917,5233678000.00,Address write: A0
6918,5233869000.00,Write
6919,5233905000.00,ACK
6920,5233967000.00,Data write: 01
6921,5234188000.00,ACK
6922,5234238000.00,Data write: 31
6923,5234464000.00,ACK
6924,5234514000.00,Stop
6925,5243930000.00,Start
6926,5243950000.00,Address write: A0
6927,5244136000.00,Write
6928,5244171000.00,ACK
6929,5244222000.00,Data write: 05
6930,5244448000.00,ACK
6931,5244498000.00,Start repeat
6932,5244518000.00,Address read: A1
6933,5244704000.00,Read
6934,5244739000.00,ACK
6935,5244791000.00,Data read: 9F
6936,5245035000.00,ACK
6937,5245071000.00,Data read: 81
6938,5245308000.00,ACK
6939,5245344000.00,Data read: BA
6940,5245575000.00,NACK
6941,5245615000.00,Stop
6942,5254920000.00,Start
6943,5254941000.00,Address write: A0
6944,5255126000.00,Write
6945,5255162000.00,ACK
6946,5255212000.00,Data write: 05
6947,5255438000.00,ACK
6948,5255488000.00,Start repeat
6949,5255509000.00,Address read: A1
6950,5255694000.00,Read
6951,5255730000.00,ACK
6952,5255781000.00,Data read: 9F
6953,5256025000.00,ACK
6954,5256061000.00,Data read: 81
6955,5256298000.00,ACK
6956,5256334000.00,Data read: BA
6957,5256565000.00,NACK
6958,5256605000.00,Stop
6959,5265900000.00,Start
6960,5265921000.00,Address write: A0
6961,5266106000.00,Write
6962,5266142000.00,ACK
6963,5266192000.00,Data write: 05
6964,5266418000.00,ACK
6965,5266468000.00,Start repeat
6966,5266489000.00,Address read: A1
6967,5266675000.00,Read
6968,5266710000.00,ACK
6969,5266762000.00,Data read: 8A
6970,5267006000.00,ACK
6971,5267041000.00,Data read: CB
6972,5267278000.00,ACK
6973,5267314000.00,Data read: A1
6974,5267546000.00,NACK
6975,5267585000.00,Stop
6976,5286816000.00,Start
6977,5286838000.00,Address write: A0
6978,5287034000.00,Write
6979,5287069000.00,ACK
6980,5287120000.00,Data write: 05
6981,5287346000.00,ACK
6982,5287396000.00,Start repeat
6983,5287417000.00,Address read: A1
6984,5287602000.00,Read
6985,5287638000.00,ACK
6986,5287684000.00,Data read: 8A
6987,5287933000.00,ACK
6988,5287969000.00,Data read: BE
6989,5288201000.00,ACK
6990,5288242000.00,Data read: 77
6991,5288473000.00,NACK
6992,5288513000.00,Stop
6993,5297863000.00,Start
6994,5297884000.00,Address write: A0
6995,5298069000.00,Write
6996,5298105000.00,ACK
6997,5298155000.00,Data write: 05
6998,5298381000.00,ACK
6999,5298431000.00,Start repeat
7000,5298452000.00,Address read: A1
7001,5298637000.00,Read
7002,5298673000.00,ACK
7003,5298724000.00,Data read: 8A
7004,5298968000.00,ACK
7005,5299004000.00,Data read: BD
7006,5299241000.00,ACK
7007,5299277000.00,Data read: 63
7008,5299509000.00,NACK
7009,5299548000.00,Stop
7010,5308847000.00,Start
7011,5308868000.00,Address write: A0
7012,5309053000.00,Write
7013,5309089000.00,ACK
7014,5309139000.00,Data write: 05
7015,5309365000.00,ACK
7016,5309415000.00,Start repeat
7017,5309436000.00,Address read: A1
7018,5309621000.00,Read
7019,5309657000.00,ACK
7020,5309709000.00,Data read: 8A
7021,5309952000.00,ACK
7022,5309988000.00,Data read: BA
7023,5310225000.00,ACK
7024,5310261000.00,Data read: 41
7025,5310493000.00,NACK
7026,5310532000.00,Stop
7027,5319830000.00,Start
7028,5319851000.00,Address write: A0
7029,5320037000.00,Write
7030,5320072000.00,ACK
7031,5320123000.00,Data write: 05
7032,5320349000.00,ACK
7033,5320399000.00,Start repeat
7034,5320419000.00,Address read: A1
7035,5320605000.00,Read
7036,5320640000.00,ACK
7037,5320692000.00,Data read: 8A
7038,5320936000.00,ACK
7039,5320972000.00,Data read: B9
7040,5321208000.00,ACK
7041,5321244000.00,Data read: A9
7042,5321476000.00,NACK
7043,5321515000.00,Stop
7044,5330821000.00,Start
7045,5330842000.00,Address write: A0
7046,5331028000.00,Write
7047,5331063000.00,ACK
7048,5331114000.00,Data write: 05
7049,5331340000.00,ACK
7050,5331390000.00,Start repeat
7051,5331410000.00,Address read: A1
7052,5331596000.00,Read
7053,5331631000.00,ACK
7054,5331683000.00,Data read: 8A
7055,5331927000.00,ACK
7056,5331963000.00,Data read: B6
7057,5332200000.00,ACK
7058,5332235000.00,Data read: F9
7059,5332467000.00,NACK
7060,5332507000.00,Stop
7061,5341805000.00,Start
7062,5341826000.00,Address write: A0
7063,5342011000.00,Write
7064,5342047000.00,ACK
7065,5342097000.00,Data write: 05
7066,5342323000.00,ACK
7067,5342373000.00,Start repeat
7068,5342394000.00,Address read: A1
7069,5342580000.00,Read
7070,5342615000.00,ACK
7071,5342667000.00,Data read: 8A
7072,5342910000.00,ACK
7073,5342946000.00,Data read: B8
7074,5343183000.00,ACK
7075,5343219000.00,Data read: 57
7076,5343451000.00,NACK
7077,5343490000.00,Stop
7078,5352791000.00,Start
7079,5352811000.00,Address write: A0
7080,5352997000.00,Write
7081,5353033000.00,ACK
7082,5353083000.00,Data write: 05
7083,5353309000.00,ACK
7084,5353359000.00,Start repeat
7085,5353380000.00,Address read: A1
7086,5353565000.00,Read
7087,5353601000.00,ACK
7088,5353653000.00,Data read: 8A
7089,5353896000.00,ACK
7090,5353932000.00,Data read: B5
7091,5354169000.00,ACK
7092,5354205000.00,Data read: 01
7093,5354437000.00,NACK
7094,5354476000.00,Stop
7095,5363783000.00,Start
7096,5363804000.00,Address write: A0
7097,5363989000.00,Write
7098,5364025000.00,ACK
7099,5364075000.00,Data write: 05
7100,5364301000.00,ACK
7101,5364351000.00,Start repeat
7102,5364372000.00,Address read: A1
7103,5364557000.00,Read
7104,5364592000.00,ACK
7105,5364644000.00,Data read: 8A
7106,5364888000.00,ACK
7107,5364924000.00,Data read: B6
7108,5365160000.00,ACK
7109,5365196000.00,Data read: C5
7110,5365428000.00,NACK
7111,5365467000.00,Stop
7112,5374767000.00,Start
7113,5374788000.00,Address write: A0
7114,5374973000.00,Write
7115,5375009000.00,ACK
7116,5375059000.00,Data write: 05
7117,5375286000.00,ACK
7118,5375336000.00,Start repeat
7119,5375356000.00,Address read: A1
7120,5375542000.00,Read
7121,5375577000.00,ACK
7122,5375629000.00,Data read: 8A
7123,5375873000.00,ACK
7124,5375909000.00,Data read: B6
7125,5376146000.00,ACK
7126,5376182000.00,Data read: 05
7127,5376413000.00,NACK
7128,5376453000.00,Stop
7129,5376475000.00,Start
7130,5376496000.00,Address write: A0
7131,5376686000.00,Write
7132,5376723000.00,ACK
7133,5376784000.00,Data write: 01
7134,5377005000.00,ACK
7135,5377056000.00,Data write: 32
7136,5377282000.00,ACK
7137,5377332000.00,Stop
7138,5404952000.00,Start
7139,5404973000.00,Address write: A0
7140,5405164000.00,Write
7141,5405199000.00,ACK
7142,5405250000.00,Data write: 05
7143,5405470000.00,ACK
7144,5405520000.00,Start repeat
7145,5405541000.00,Address read: A1
7146,5405743000.00,Read
7147,5405779000.00,ACK
7148,5405825000.00,Data read: E0
7149,5406057000.00,ACK
7150,5406098000.00,Data read: E2
7151,5406330000.00,ACK
7152,5406365000.00,Data read: EF
7153,5406602000.00,NACK
7154,5406642000.00,Stop
7155,5415713000.00,Start
7156,5415733000.00,Address write: A0
7157,5415919000.00,Write
7158,5415954000.00,ACK
7159,5416005000.00,Data write: 05
7160,5416231000.00,ACK
7161,5416281000.00,Start repeat
7162,5416302000.00,Address read: A1
7163,5416487000.00,Read
7164,5416522000.00,ACK
7165,5416574000.00,Data read: E0
7166,5416818000.00,ACK
7167,5416854000.00,Data read: E0
7168,5417090000.00,ACK
7169,5417126000.00,Data read: B1
7170,5417358000.00,NACK
7171,5417397000.00,Stop
7172,5426691000.00,Start
7173,5426712000.00,Address write: A0
7174,5426897000.00,Write
7175,5426933000.00,ACK
7176,5426983000.00,Data write: 05
7177,5427209000.00,ACK
7178,5427259000.00,Start repeat
7179,5427280000.00,Address read: A1
7180,5427465000.00,Read
7181,5427500000.00,ACK
7182,5427552000.00,Data read: E0
7183,5427796000.00,ACK
7184,5427832000.00,Data read: DF
7185,5428068000.00,ACK
7186,5428104000.00,Data read: 39
7187,5428336000.00,NACK
7188,5428375000.00,Stop
7189,5437671000.00,Start
7190,5437691000.00,Address write: A0
7191,5437877000.00,Write
7192,5437912000.00,ACK
7193,5437963000.00,Data write: 05
7194,5438189000.00,ACK
7195,5438239000.00,Start repeat
7196,5438259000.00,Address read: A1
7197,5438445000.00,Read
7198,5438480000.00,ACK
7199,5438532000.00,Data read: E0
7200,5438775000.00,ACK
7201,5438811000.00,Data read: DE
7202,5439048000.00,ACK
7203,5439084000.00,Data read: 8F
7204,5439315000.00,NACK
7205,5439355000.00,Stop
7206,5448661000.00,Start
7207,5448682000.00,Address write: A0
7208,5448868000.00,Write
7209,5448903000.00,ACK
7210,5448953000.00,Data write: 05
7211,5449180000.00,ACK
7212,5449229000.00,Start repeat
7213,5449250000.00,Address read: A1
7214,5449436000.00,Read
7215,5449471000.00,ACK
7216,5449523000.00,Data read: E0
7217,5449767000.00,ACK
7218,5449802000.00,Data read: DE
7219,5450039000.00,ACK
7220,5450075000.00,Data read: 6F
7221,5450307000.00,NACK
7222,5450347000.00,Stop
7223,5459648000.00,Start
7224,5459668000.00,Address write: A0
7225,5459854000.00,Write
7226,5459889000.00,ACK
7227,5459940000.00,Data write: 05
7228,5460166000.00,ACK
7229,5460216000.00,Start repeat
7230,5460236000.00,Address read: A1
7231,5460422000.00,Read
7232,5460457000.00,ACK
7233,5460509000.00,Data read: E0
7234,5460753000.00,ACK
7235,5460789000.00,Data read: DC
7236,5461026000.00,ACK
7237,5461062000.00,Data read: 81
7238,5461294000.00,NACK
7239,5461333000.00,Stop
7240,5470640000.00,Start
7241,5470661000.00,Address write: A0
7242,5470847000.00,Write
7243,5470882000.00,ACK
7244,5470932000.00,Data write: 05
7245,5471159000.00,ACK
7246,5471208000.00,Start repeat
7247,5471229000.00,Address read: A1
7248,5471415000.00,Read
7249,5471450000.00,ACK
7250,5471502000.00,Data read: E0
7251,5471746000.00,ACK
7252,5471782000.00,Data read: E2
7253,5472018000.00,ACK
7254,5472054000.00,Data read: 95
7255,5472286000.00,NACK
7256,5472325000.00,Stop
7257,5481621000.00,Start
7258,5481641000.00,Address write: A0
7259,5481827000.00,Write
7260,5481862000.00,ACK
7261,5481913000.00,Data write: 05
7262,5482139000.00,ACK
7263,5482189000.00,Start repeat
7264,5482209000.00,Address read: A1
7265,5482395000.00,Read
7266,5482430000.00,ACK
7267,5482482000.00,Data read: E0
7268,5482726000.00,ACK
7269,5482762000.00,Data read: E2
7270,5482999000.00,ACK
7271,5483035000.00,Data read: CB
7272,5483266000.00,NACK
7273,5483306000.00,Stop
7274,5492606000.00,Start
7275,5492627000.00,Address write: A0
7276,5492813000.00,Write
7277,5492848000.00,ACK
7278,5492899000.00,Data write: 05
7279,5493125000.00,ACK
7280,5493175000.00,Start repeat
7281,5493195000.00,Address read: A1
7282,5493381000.00,Read
7283,5493416000.00,ACK
7284,5493468000.00,Data read: E0
7285,5493712000.00,ACK
7286,5493748000.00,Data read: E4
7287,5493985000.00,ACK
7288,5494021000.00,Data read: B7
7289,5494252000.00,NACK
7290,5494292000.00,Stop
7291,5503595000.00,Start
7292,5503616000.00,Address write: A0
7293,5503801000.00,Write
7294,5503837000.00,ACK
7295,5503887000.00,Data write: 05
7296,5504113000.00,ACK
7297,5504163000.00,Start repeat
7298,5504184000.00,Address read: A1
7299,5504370000.00,Read
7300,5504405000.00,ACK
7301,5504457000.00,Data read: E0
7302,5504701000.00,ACK
7303,5504737000.00,Data read: E0
7304,5504973000.00,ACK
7305,5505009000.00,Data read: 5B
7306,5505241000.00,NACK
7307,5505281000.00,Stop
7308,5505303000.00,Start
7309,5505323000.00,Address write: A0
7310,5505514000.00,Write
7311,5505551000.00,ACK
7312,5505612000.00,Data write: 01
7313,5505833000.00,ACK
7314,5505884000.00,Data write: 33
7315,5506110000.00,ACK
7316,5506160000.00,Stop
7317,5525611000.00,Start
7318,5525632000.00,Address write: A0
7319,5525818000.00,Write
7320,5525853000.00,ACK
7321,5525908000.00,Data write: 05
7322,5526129000.00,ACK
7323,5526179000.00,Start repeat
7324,5526200000.00,Address read: A1
7325,5526386000.00,Read
7326,5526426000.00,ACK
7327,5526473000.00,Data read: E0
7328,5526717000.00,ACK
7329,5526753000.00,Data read: E0
7330,5526990000.00,ACK
7331,5527025000.00,Data read: 5A
7332,5527257000.00,NACK
7333,5527297000.00,Stop
7334,5536555000.00,Start
7335,5536576000.00,Address write: A0
7336,5536761000.00,Write
7337,5536797000.00,ACK
7338,5536847000.00,Data write: 05
7339,5537073000.00,ACK
7340,5537123000.00,Start repeat
7341,5537144000.00,Address read: A1
7342,5537329000.00,Read
7343,5537365000.00,ACK
7344,5537416000.00,Data read: 9F
7345,5537660000.00,ACK
7346,5537696000.00,Data read: 80
7347,5537933000.00,ACK
7348,5537969000.00,Data read: 6B
7349,5538200000.00,NACK
7350,5538240000.00,Stop
7351,5547539000.00,Start
7352,5547560000.00,Address write: A0
7353,5547745000.00,Write
7354,5547781000.00,ACK
7355,5547831000.00,Data write: 05
7356,5548057000.00,ACK
7357,5548107000.00,Start repeat
7358,5548128000.00,Address read: A1
7359,5548314000.00,Read
7360,5548349000.00,ACK
7361,5548401000.00,Data read: 9F
7362,5548645000.00,ACK
7363,5548681000.00,Data read: 7A
7364,5548918000.00,ACK
7365,5548953000.00,Data read: AD
7366,5549185000.00,NACK
7367,5549225000.00,Stop
7368,5558524000.00,Start
7369,5558545000.00,Address write: A0
7370,5558731000.00,Write
7371,5558766000.00,ACK
7372,5558816000.00,Data write: 05
7373,5559043000.00,ACK
7374,5559092000.00,Start repeat
7375,5559113000.00,Address read: A1
7376,5559299000.00,Read
7377,5559334000.00,ACK
7378,5559386000.00,Data read: 9F
7379,5559630000.00,ACK
7380,5559666000.00,Data read: 7A
7381,5559903000.00,ACK
7382,5559938000.00,Data read: 0D
7383,5560170000.00,NACK
7384,5560210000.00,Stop
7385,5569516000.00,Start
7386,5569537000.00,Address write: A0
7387,5569722000.00,Write
7388,5569758000.00,ACK
7389,5569808000.00,Data write: 05
7390,5570034000.00,ACK
7391,5570084000.00,Start repeat
7392,5570105000.00,Address read: A1
7393,5570291000.00,Read
7394,5570326000.00,ACK
7395,5570378000.00,Data read: 9F
7396,5570622000.00,ACK
7397,5570658000.00,Data read: 81
7398,5570894000.00,ACK
7399,5570930000.00,Data read: 07
7400,5571162000.00,NACK
7401,5571202000.00,Stop
7402,5580502000.00,Start
7403,5580522000.00,Address write: A0
7404,5580708000.00,Write
7405,5580744000.00,ACK
7406,5580794000.00,Data write: 05
7407,5581020000.00,ACK
7408,5581070000.00,Start repeat
7409,5581091000.00,Address read: A1
7410,5581277000.00,Read
7411,5581312000.00,ACK
7412,5581364000.00,Data read: 9F
7413,5581608000.00,ACK
7414,5581644000.00,Data read: 7D
7415,5581881000.00,ACK
7416,5581916000.00,Data read: 2F
7417,5582148000.00,NACK
7418,5582188000.00,Stop
7419,5591489000.00,Start
7420,5591510000.00,Address write: A0
7421,5591696000.00,Write
7422,5591731000.00,ACK
7423,5591782000.00,Data write: 05
7424,5592008000.00,ACK
7425,5592058000.00,Start repeat
7426,5592078000.00,Address read: A1
7427,5592264000.00,Read
7428,5592300000.00,ACK
7429,5592351000.00,Data read: 9F
7430,5592595000.00,ACK
7431,5592631000.00,Data read: 80
7432,5592868000.00,ACK
7433,5592904000.00,Data read: 7D
7434,5593136000.00,NACK
7435,5593175000.00,Stop
7436,5602480000.00,Start
7437,5602501000.00,Address write: A0
7438,5602686000.00,Write
7439,5602722000.00,ACK
7440,5602772000.00,Data write: 05
7441,5602998000.00,ACK
7442,5603048000.00,Start repeat
7443,5603069000.00,Address read: A1
7444,5603254000.00,Read
7445,5603290000.00,ACK
7446,5603341000.00,Data read: 9F
7447,5603585000.00,ACK
7448,5603621000.00,Data read: 78
7449,5603858000.00,ACK
7450,5603894000.00,Data read: FD
7451,5604126000.00,NACK
7452,5604165000.00,Stop
7453,5613463000.00,Start
7454,5613484000.00,Address write: A0
7455,5613669000.00,Write
7456,5613705000.00,ACK
7457,5613755000.00,Data write: 05
7458,5613981000.00,ACK
7459,5614031000.00,Start repeat
7460,5614052000.00,Address read: A1
7461,5614237000.00,Read
7462,5614273000.00,ACK
7463,5614324000.00,Data read: 9F
7464,5614568000.00,ACK
7465,5614604000.00,Data read: 81
7466,5614841000.00,ACK
7467,5614877000.00,Data read: B5
7468,5615108000.00,NACK
7469,5615148000.00,Stop
7470,5624448000.00,Start
7471,5624468000.00,Address write: A0
7472,5624654000.00,Write
7473,5624689000.00,ACK
7474,5624740000.00,Data write: 05
7475,5624966000.00,ACK
7476,5625016000.00,Start repeat
7477,5625036000.00,Address read: A1
7478,5625222000.00,Read
7479,5625257000.00,ACK
7480,5625309000.00,Data read: 9F
7481,5625553000.00,ACK
7482,5625589000.00,Data read: 7F
7483,5625826000.00,ACK
7484,5625862000.00,Data read: 0F
7485,5626093000.00,NACK
7486,5626133000.00,Stop
7487,5645363000.00,Start
7488,5645385000.00,Address write: A0
7489,5645582000.00,Write
7490,5645617000.00,ACK
7491,5645668000.00,Data write: 05
7492,5645894000.00,ACK
7493,5645944000.00,Start repeat
7494,5645964000.00,Address read: A1
7495,5646150000.00,Read
7496,5646185000.00,ACK
7497,5646232000.00,Data read: 9F
7498,5646481000.00,ACK
7499,5646517000.00,Data read: 7A
7500,5646749000.00,ACK
7501,5646790000.00,Data read: ED
7502,5647022000.00,NACK
7503,5647061000.00,Stop
7504,5647083000.00,Start
7505,5647104000.00,Address write: A0
7506,5647295000.00,Write
7507,5647330000.00,ACK
7508,5647382000.00,Data write: 01
7509,5647614000.00,ACK
7510,5647664000.00,Data write: 31
7511,5647890000.00,ACK
7512,5647940000.00,Stop
7513,5657411000.00,Start
7514,5657431000.00,Address write: A0
7515,5657617000.00,Write
7516,5657652000.00,ACK
7517,5657703000.00,Data write: 05
7518,5657929000.00,ACK
7519,5657979000.00,Start repeat
7520,5657999000.00,Address read: A1
7521,5658185000.00,Read
7522,5658220000.00,ACK
7523,5658272000.00,Data read: 9F
7524,5658516000.00,ACK
7525,5658552000.00,Data read: 7A
7526,5658789000.00,ACK
7527,5658824000.00,Data read: EC
7528,5659056000.00,NACK
7529,5659096000.00,Stop
7530,5668393000.00,Start
7531,5668414000.00,Address write: A0
7532,5668599000.00,Write
7533,5668635000.00,ACK
7534,5668685000.00,Data write: 05
7535,5668911000.00,ACK
7536,5668961000.00,Start repeat
7537,5668982000.00,Address read: A1
7538,5669167000.00,Read
7539,5669203000.00,ACK
7540,5669255000.00,Data read: 9F
7541,5669498000.00,ACK
7542,5669534000.00,Data read: 7A
7543,5669771000.00,ACK
7544,5669807000.00,Data read: EC
7545,5670039000.00,NACK
7546,5670078000.00,Stop
7547,5679383000.00,Start
7548,5679404000.00,Address write: A0
7549,5679589000.00,Write
7550,5679625000.00,ACK
7551,5679675000.00,Data write: 05
7552,5679901000.00,ACK
7553,5679951000.00,Start repeat
7554,5679972000.00,Address read: A1
7555,5680157000.00,Read
7556,5680192000.00,ACK
7557,5680244000.00,Data read: 8A
7558,5680488000.00,ACK
7559,5680524000.00,Data read: CA
7560,5680760000.00,ACK
7561,5680796000.00,Data read: 73
7562,5681028000.00,NACK
7563,5681067000.00,Stop
7564,5690363000.00,Start
7565,5690384000.00,Address write: A0
7566,5690570000.00,Write
7567,5690605000.00,ACK
7568,5690656000.00,Data write: 05
7569,5690882000.00,ACK
7570,5690932000.00,Start repeat
7571,5690952000.00,Address read: A1
7572,5691138000.00,Read
7573,5691173000.00,ACK
7574,5691225000.00,Data read: 8A
7575,5691469000.00,ACK
7576,5691505000.00,Data read: BE
7577,5691742000.00,ACK
7578,5691778000.00,Data read: 21
7579,5692009000.00,NACK
7580,5692049000.00,Stop
7581,5701346000.00,Start
7582,5701367000.00,Address write: A0
7583,5701553000.00,Write
7584,5701588000.00,ACK
7585,5701638000.00,Data write: 05
7586,5701865000.00,ACK
7587,5701915000.00,Start repeat
7588,5701935000.00,Address read: A1
7589,5702121000.00,Read
7590,5702156000.00,ACK
7591,5702208000.00,Data read: 8A
7592,5702452000.00,ACK
7593,5702487000.00,Data read: BD
7594,5702724000.00,ACK
7595,5702760000.00,Data read: 6D
7596,5702992000.00,NACK
7597,5703031000.00,Stop
7598,5712338000.00,Start
7599,5712359000.00,Address write: A0
7600,5712544000.00,Write
7601,5712580000.00,ACK
7602,5712630000.00,Data write: 05
7603,5712856000.00,ACK
7604,5712906000.00,Start repeat
7605,5712927000.00,Address read: A1
7606,5713113000.00,Read
7607,5713148000.00,ACK
7608,5713200000.00,Data read: 8A
7609,5713444000.00,ACK
7610,5713479000.00,Data read: B9
7611,5713716000.00,ACK
7612,5713752000.00,Data read: C1
7613,5713984000.00,NACK
7614,5714023000.00,Stop
7615,5723321000.00,Start
7616,5723341000.00,Address write: A0
7617,5723527000.00,Write
7618,5723562000.00,ACK
7619,5723613000.00,Data write: 05
7620,5723839000.00,ACK
7621,5723889000.00,Start repeat
7622,5723910000.00,Address read: A1
7623,5724095000.00,Read
7624,5724131000.00,ACK
7625,5724182000.00,Data read: 8A
7626,5724426000.00,ACK
7627,5724462000.00,Data read: BA
7628,5724699000.00,ACK
7629,5724735000.00,Data read: 09
7630,5724967000.00,NACK
7631,5725006000.00,Stop
7632,5734306000.00,Start
7633,5734326000.00,Address write: A0
7634,5734512000.00,Write
7635,5734547000.00,ACK
7636,5734598000.00,Data write: 05
7637,5734824000.00,ACK
7638,5734874000.00,Start repeat
7639,5734895000.00,Address read: A1
7640,5735080000.00,Read
7641,5735116000.00,ACK
7642,5735167000.00,Data read: 8A
7643,5735411000.00,ACK
7644,5735447000.00,Data read: B6
7645,5735684000.00,ACK
7646,5735720000.00,Data read: DF
7647,5735951000.00,NACK
7648,5735991000.00,Stop
7649,5763496000.00,Start
7650,5763517000.00,Address write: A0
7651,5763708000.00,Write
7652,5763743000.00,ACK
7653,5763794000.00,Data write: 05
7654,5764015000.00,ACK
7655,5764065000.00,Start repeat
7656,5764085000.00,Address read: A1
7657,5764288000.00,Read
7658,5764323000.00,ACK
7659,5764370000.00,Data read: 8A
7660,5764602000.00,ACK
7661,5764643000.00,Data read: B5
7662,5764875000.00,ACK
7663,5764910000.00,Data read: 55
7664,5765147000.00,NACK
7665,5765187000.00,Stop
7666,5774261000.00,Start
7667,5774281000.00,Address write: A0
7668,5774467000.00,Write
7669,5774503000.00,ACK
7670,5774553000.00,Data write: 05
7671,5774779000.00,ACK
7672,5774829000.00,Start repeat
7673,5774850000.00,Address read: A1
7674,5775035000.00,Read
7675,5775071000.00,ACK
7676,5775122000.00,Data read: 8A
7677,5775366000.00,ACK
7678,5775402000.00,Data read: B7
7679,5775639000.00,ACK
7680,5775675000.00,Data read: 7B
7681,5775907000.00,NACK
7682,5775946000.00,Stop
7683,5785247000.00,Start
7684,5785267000.00,Address write: A0
7685,5785453000.00,Write
7686,5785488000.00,ACK
7687,5785539000.00,Data write: 05
7688,5785765000.00,ACK
7689,5785815000.00,Start repeat
7690,5785835000.00,Address read: A1
7691,5786021000.00,Read
7692,5786056000.00,ACK
7693,5786108000.00,Data read: 8A
7694,5786352000.00,ACK
7695,5786388000.00,Data read: B3
7696,5786625000.00,ACK
7697,5786661000.00,Data read: F1
7698,5786892000.00,NACK
7699,5786932000.00,Stop
7700,5796239000.00,Start
7701,5796260000.00,Address write: A0
7702,5796445000.00,Write
7703,5796481000.00,ACK
7704,5796531000.00,Data write: 05
7705,5796757000.00,ACK
7706,5796807000.00,Start repeat
7707,5796828000.00,Address read: A1
7708,5797013000.00,Read
7709,5797049000.00,ACK
7710,5797101000.00,Data read: 8A
7711,5797345000.00,ACK
7712,5797380000.00,Data read: B3
7713,5797617000.00,ACK
7714,5797653000.00,Data read: E1
7715,5797885000.00,NACK
7716,5797924000.00,Stop
7717,5797947000.00,Start
7718,5797967000.00,Address write: A0
7719,5798158000.00,Write
7720,5798194000.00,ACK
7721,5798256000.00,Data write: 01
7722,5798477000.00,ACK
7723,5798528000.00,Data write: 32
7724,5798754000.00,ACK
7725,5798804000.00,Stop
7726,5809219000.00,Start
7727,5809239000.00,Address write: A0
7728,5809425000.00,Write
7729,5809460000.00,ACK
7730,5809511000.00,Data write: 05
7731,5809737000.00,ACK
7732,5809787000.00,Start repeat
7733,5809807000.00,Address read: A1
7734,5809993000.00,Read
7735,5810029000.00,ACK
7736,5810080000.00,Data read: 8A
7737,5810324000.00,ACK
7738,5810360000.00,Data read: B3
7739,5810597000.00,ACK
7740,5810633000.00,Data read: E0
7741,5810864000.00,NACK
7742,5810904000.00,Stop
7743,5820210000.00,Start
7744,5820230000.00,Address write: A0
7745,5820416000.00,Write
7746,5820451000.00,ACK
7747,5820502000.00,Data write: 05
7748,5820728000.00,ACK
7749,5820778000.00,Start repeat
7750,5820798000.00,Address read: A1
7751,5820984000.00,Read
7752,5821019000.00,ACK
7753,5821071000.00,Data read: 8A
7754,5821315000.00,ACK
7755,5821351000.00,Data read: B3
7756,5821587000.00,ACK
7757,5821623000.00,Data read: E0
7758,5821855000.00,NACK
7759,5821894000.00,Stop
7760,5831190000.00,Start
7761,5831210000.00,Address write: A0
7762,5831396000.00,Write
7763,5831431000.00,ACK
7764,5831482000.00,Data write: 05
7765,5831707000.00,ACK
7766,5831757000.00,Start repeat
7767,5831778000.00,Address read: A1
7768,5831963000.00,Read
7769,5831999000.00,ACK
7770,5832051000.00,Data read: E0
7771,5832294000.00,ACK
7772,5832330000.00,Data read: E2
7773,5832567000.00,ACK
7774,5832603000.00,Data read: 85
7775,5832834000.00,NACK
7776,5832874000.00,Stop
7777,5842178000.00,Start
7778,5842199000.00,Address write: A0
7779,5842384000.00,Write
7780,5842420000.00,ACK
7781,5842470000.00,Data write: 05
7782,5842696000.00,ACK
7783,5842746000.00,Start repeat
7784,5842767000.00,Address read: A1
7785,5842953000.00,Read
7786,5842988000.00,ACK
7787,5843040000.00,Data read: E0
7788,5843284000.00,ACK
7789,5843320000.00,Data read: E3
7790,5843556000.00,ACK
7791,5843592000.00,Data read: 4D
7792,5843824000.00,NACK
7793,5843864000.00,Stop
7794,5853163000.00,Start
7795,5853184000.00,Address write: A0
7796,5853370000.00,Write
7797,5853405000.00,ACK
7798,5853455000.00,Data write: 05
7799,5853681000.00,ACK
7800,5853731000.00,Start repeat
7801,5853752000.00,Address read: A1
7802,5853938000.00,Read
7803,5853973000.00,ACK
7804,5854025000.00,Data read: E0
7805,5854268000.00,ACK
7806,5854304000.00,Data read: E3
7807,5854541000.00,ACK
7808,5854577000.00,Data read: E1
7809,5854809000.00,NACK
7810,5854848000.00,Stop
7811,5882350000.00,Start
7812,5882370000.00,Address write: A0
7813,5882561000.00,Write
7814,5882596000.00,ACK
7815,5882647000.00,Data write: 05
7816,5882868000.00,ACK
7817,5882918000.00,Start repeat
7818,5882939000.00,Address read: A1
7819,5883141000.00,Read
7820,5883177000.00,ACK
7821,5883223000.00,Data read: E0
7822,5883455000.00,ACK
7823,5883496000.00,Data read: DB
7824,5883728000.00,ACK
7825,5883764000.00,Data read: 0F
7826,5884001000.00,NACK
7827,5884040000.00,Stop
7828,5893103000.00,Start
7829,5893124000.00,Address write: A0
7830,5893309000.00,Write
7831,5893345000.00,ACK
7832,5893395000.00,Data write: 05
7833,5893621000.00,ACK
7834,5893671000.00,Start repeat
7835,5893692000.00,Address read: A1
7836,5893877000.00,Read
7837,5893913000.00,ACK
7838,5893964000.00,Data read: E0
7839,5894208000.00,ACK
7840,5894244000.00,Data read: DE
7841,5894481000.00,ACK
7842,5894517000.00,Data read: 09
7843,5894748000.00,NACK
7844,5894788000.00,Stop
7845,5904094000.00,Start
7846,5904115000.00,Address write: A0
7847,5904301000.00,Write
7848,5904336000.00,ACK
7849,5904386000.00,Data write: 05
7850,5904613000.00,ACK
7851,5904662000.00,Start repeat
7852,5904683000.00,Address read: A1
7853,5904869000.00,Read
7854,5904904000.00,ACK
7855,5904956000.00,Data read: E0
7856,5905200000.00,ACK
7857,5905236000.00,Data read: E0
7858,5905473000.00,ACK
7859,5905508000.00,Data read: 65
7860,5905740000.00,NACK
7861,5905780000.00,Stop
7862,5915078000.00,Start
7863,5915098000.00,Address write: A0
7864,5915284000.00,Write
7865,5915319000.00,ACK
7866,5915370000.00,Data write: 05
7867,5915596000.00,ACK
7868,5915646000.00,Start repeat
7869,5915667000.00,Address read: A1
7870,5915852000.00,Read
7871,5915888000.00,ACK
7872,5915939000.00,Data read: E0
7873,5916183000.00,ACK
7874,5916219000.00,Data read: E4
7875,5916456000.00,ACK
7876,5916492000.00,Data read: 19
7877,5916724000.00,NACK
7878,5916763000.00,Stop
7879,5926063000.00,Start
7880,5926084000.00,Address write: A0
7881,5926269000.00,Write
7882,5926305000.00,ACK
7883,5926355000.00,Data write: 05
7884,5926581000.00,ACK
7885,5926631000.00,Start repeat
7886,5926652000.00,Address read: A1
7887,5926837000.00,Read
7888,5926873000.00,ACK
7889,5926924000.00,Data read: E0
7890,5927168000.00,ACK
7891,5927204000.00,Data read: DF
7892,5927441000.00,ACK
7893,5927477000.00,Data read: FD
7894,5927708000.00,NACK
7895,5927748000.00,Stop
7896,5937053000.00,Start
7897,5937073000.00,Address write: A0
7898,5937259000.00,Write
7899,5937294000.00,ACK
7900,5937345000.00,Data write: 05
7901,5937571000.00,ACK
7902,5937621000.00,Start repeat
7903,5937641000.00,Address read: A1
7904,5937827000.00,Read
7905,5937862000.00,ACK
7906,5937914000.00,Data read: E0
7907,5938158000.00,ACK
7908,5938194000.00,Data read: DF
7909,5938431000.00,ACK
7910,5938467000.00,Data read: 37
7911,5938698000.00,NACK
7912,5938738000.00,Stop
7913,5948035000.00,Start
7914,5948056000.00,Address write: A0
7915,5948241000.00,Write
7916,5948277000.00,ACK
7917,5948327000.00,Data write: 05
7918,5948553000.00,ACK
7919,5948603000.00,Start repeat
7920,5948624000.00,Address read: A1
7921,5948809000.00,Read
7922,5948845000.00,ACK
7923,5948896000.00,Data read: E0
7924,5949140000.00,ACK
7925,5949176000.00,Data read: E0
7926,5949413000.00,ACK
7927,5949449000.00,Data read: 2B
7928,5949680000.00,NACK
7929,5949720000.00,Stop
7930,5949742000.00,Start
7931,5949763000.00,Address write: A0
7932,5949953000.00,Write
7933,5949990000.00,ACK
7934,5950051000.00,Data write: 01
7935,5950272000.00,ACK
7936,5950323000.00,Data write: 33
7937,5950549000.00,ACK
7938,5950599000.00,Stop
7939,5960015000.00,Start
7940,5960035000.00,Address write: A0
7941,5960221000.00,Write
7942,5960256000.00,ACK
7943,5960307000.00,Data write: 05
7944,5960533000.00,ACK
7945,5960583000.00,Start repeat
7946,5960603000.00,Address read: A1
7947,5960789000.00,Read
7948,5960824000.00,ACK
7949,5960876000.00,Data read: E0
7950,5961119000.00,ACK
7951,5961155000.00,Data read: E0
7952,5961392000.00,ACK
7953,5961428000.00,Data read: 2A
7954,5961660000.00,NACK
7955,5961699000.00,Stop
7956,5971003000.00,Start
7957,5971024000.00,Address write: A0
7958,5971209000.00,Write
7959,5971245000.00,ACK
7960,5971295000.00,Data write: 05
7961,5971521000.00,ACK
7962,5971571000.00,Start repeat
7963,5971592000.00,Address read: A1
7964,5971777000.00,Read
7965,5971813000.00,ACK
7966,5971865000.00,Data read: E0
7967,5972109000.00,ACK
7968,5972144000.00,Data read: E0
7969,5972381000.00,ACK
7970,5972417000.00,Data read: 2A
7971,5972649000.00,NACK
7972,5972688000.00,Stop
7973,5981986000.00,Start
7974,5982006000.00,Address write: A0
7975,5982192000.00,Write
7976,5982227000.00,ACK
7977,5982278000.00,Data write: 05
7978,5982504000.00,ACK
7979,5982554000.00,Start repeat
7980,5982575000.00,Address read: A1
7981,5982760000.00,Read
7982,5982796000.00,ACK
7983,5982847000.00,Data read: 9F
7984,5983091000.00,ACK
7985,5983127000.00,Data read: 7C
7986,5983364000.00,ACK
7987,5983400000.00,Data read: 75
7988,5983632000.00,NACK
7989,5983671000.00,Stop
7990,6002908000.00,Start
7991,6002930000.00,Address write: A0
7992,6003126000.00,Write
7993,6003162000.00,ACK
7994,6003212000.00,Data write: 05
7995,6003438000.00,ACK
7996,6003488000.00,Start repeat
7997,6003509000.00,Address read: A1
7998,6003694000.00,Read
7999,6003730000.00,ACK
8000,6003776000.00,Data read: 9F
8001,6004025000.00,ACK
8002,6004061000.00,Data read: 7E
8003,6004293000.00,ACK
8004,6004334000.00,Data read: 65
8005,6004566000.00,NACK
8006,6004605000.00,Stop
8007,6013951000.00,Start
8008,6013972000.00,Address write: A0
8009,6014158000.00,Write
8010,6014193000.00,ACK
8011,6014244000.00,Data write: 05
8012,6014470000.00,ACK
8013,6014520000.00,Start repeat
8014,6014540000.00,Address read: A1
8015,6014726000.00,Read
8016,6014761000.00,ACK
8017,6014813000.00,Data read: 9F
8018,6015057000.00,ACK
8019,6015093000.00,Data read: 84
8020,6015330000.00,ACK
8021,6015365000.00,Data read: 2D
8022,6015597000.00,NACK
8023,6015637000.00,Stop
8024,6024937000.00,Start
8025,6024958000.00,Address write: A0
8026,6025143000.00,Write
8027,6025179000.00,ACK
8028,6025229000.00,Data write: 05
8029,6025455000.00,ACK
8030,6025505000.00,Start repeat
8031,6025526000.00,Address read: A1
8032,6025712000.00,Read
8033,6025747000.00,ACK
8034,6025799000.00,Data read: 9F
8035,6026043000.00,ACK
8036,6026079000.00,Data read: 7B
8037,6026315000.00,ACK
8038,6026351000.00,Data read: 9B
8039,6026583000.00,NACK
8040,6026623000.00,Stop
8041,6035929000.00,Start
8042,6035949000.00,Address write: A0
8043,6036135000.00,Write
8044,6036171000.00,ACK
8045,6036221000.00,Data write: 05
8046,6036447000.00,ACK
8047,6036497000.00,Start repeat
8048,6036518000.00,Address read: A1
8049,6036703000.00,Read
8050,6036739000.00,ACK
8051,6036791000.00,Data read: 9F
8052,6037035000.00,ACK
8053,6037070000.00,Data read: 7C
8054,6037307000.00,ACK
8055,6037343000.00,Data read: C1
8056,6037575000.00,NACK
8057,6037614000.00,Stop
8058,6046915000.00,Start
8059,6046935000.00,Address write: A0
8060,6047121000.00,Write
8061,6047157000.00,ACK
8062,6047207000.00,Data write: 05
8063,6047433000.00,ACK
8064,6047483000.00,Start repeat
8065,6047504000.00,Address read: A1
8066,6047689000.00,Read
8067,6047725000.00,ACK
8068,6047776000.00,Data read: 9F
8069,6048020000.00,ACK
8070,6048056000.00,Data read: 80
8071,6048293000.00,ACK
8072,6048329000.00,Data read: 97
8073,6048561000.00,NACK
8074,6048600000.00,Stop
8075,6057897000.00,Start
8076,6057918000.00,Address write: A0
8077,6058104000.00,Write
8078,6058139000.00,ACK
8079,6058189000.00,Data write: 05
8080,6058415000.00,ACK
8081,6058465000.00,Start repeat
8082,6058486000.00,Address read: A1
8083,6058672000.00,Read
8084,6058707000.00,ACK
8085,6058759000.00,Data read: 9F
8086,6059002000.00,ACK
8087,6059038000.00,Data read: 81
8088,6059275000.00,ACK
8089,6059311000.00,Data read: 83
8090,6059543000.00,NACK
8091,6059582000.00,Stop
8092,6068889000.00,Start
8093,6068909000.00,Address write: A0
8094,6069095000.00,Write
8095,6069130000.00,ACK
8096,6069181000.00,Data write: 05
8097,6069407000.00,ACK
8098,6069457000.00,Start repeat
8099,6069477000.00,Address read: A1
8100,6069663000.00,Read
8101,6069698000.00,ACK
8102,6069750000.00,Data read: 9F
8103,6069994000.00,ACK
8104,6070029000.00,Data read: 85
8105,6070266000.00,ACK
8106,6070302000.00,Data read: 89
8107,6070534000.00,NACK
8108,6070573000.00,Stop
8109,6079872000.00,Start
8110,6079892000.00,Address write: A0
8111,6080078000.00,Write
8112,6080113000.00,ACK
8113,6080164000.00,Data write: 05
8114,6080390000.00,ACK
8115,6080440000.00,Start repeat
8116,6080460000.00,Address read: A1
8117,6080646000.00,Read
8118,6080681000.00,ACK
8119,6080733000.00,Data read: 9F
8120,6080977000.00,ACK
8121,6081013000.00,Data read: 7D
8122,6081250000.00,ACK
8123,6081285000.00,Data read: 0F
8124,6081517000.00,NACK
8125,6081557000.00,Stop
8126,6090855000.00,Start
8127,6090875000.00,Address write: A0
8128,6091061000.00,Write
8129,6091096000.00,ACK
8130,6091147000.00,Data write: 05
8131,6091373000.00,ACK
8132,6091423000.00,Start repeat
8133,6091443000.00,Address read: A1
8134,6091629000.00,Read
8135,6091664000.00,ACK
8136,6091716000.00,Data read: 9F
8137,6091960000.00,ACK
8138,6091996000.00,Data read: 85
8139,6092233000.00,ACK
8140,6092268000.00,Data read: 81
8141,6092500000.00,NACK
8142,6092540000.00,Stop
8143,6092562000.00,Start
8144,6092582000.00,Address write: A0
8145,6092773000.00,Write
8146,6092809000.00,ACK
8147,6092871000.00,Data write: 01
8148,6093092000.00,ACK
8149,6093142000.00,Data write: 31
8150,6093369000.00,ACK
8151,6093419000.00,Stop
8152,6121050000.00,Start
8153,6121071000.00,Address write: A0
8154,6121262000.00,Write
8155,6121297000.00,ACK
8156,6121347000.00,Data write: 05
8157,6121568000.00,ACK
8158,6121618000.00,Start repeat
8159,6121639000.00,Address read: A1
8160,6121841000.00,Read
8161,6121877000.00,ACK
8162,6121924000.00,Data read: 8A
8163,6122155000.00,ACK
8164,6122196000.00,Data read: C8
8165,6122428000.00,ACK
8166,6122464000.00,Data read: 5F
8167,6122701000.00,NACK
8168,6122740000.00,Stop
8169,6131806000.00,Start
8170,6131827000.00,Address write: A0
8171,6132012000.00,Write
8172,6132048000.00,ACK
8173,6132098000.00,Data write: 05
8174,6132324000.00,ACK
8175,6132374000.00,Start repeat
8176,6132395000.00,Address read: A1
8177,6132581000.00,Read
8178,6132616000.00,ACK
8179,6132668000.00,Data read: 8A
8180,6132912000.00,ACK
8181,6132947000.00,Data read: C3
8182,6133184000.00,ACK
8183,6133220000.00,Data read: 43
8184,6133452000.00,NACK
8185,6133491000.00,Stop
8186,6142799000.00,Start
8187,6142819000.00,Address write: A0
8188,6143005000.00,Write
8189,6143040000.00,ACK
8190,6143091000.00,Data write: 05
8191,6143317000.00,ACK
8192,6143367000.00,Start repeat
8193,6143388000.00,Address read: A1
8194,6143573000.00,Read
8195,6143609000.00,ACK
8196,6143660000.00,Data read: 8A
8197,6143904000.00,ACK
8198,6143940000.00,Data read: BE
8199,6144177000.00,ACK
8200,6144213000.00,Data read: 87
8201,6144445000.00,NACK
8202,6144484000.00,Stop
8203,6153786000.00,Start
8204,6153807000.00,Address write: A0
8205,6153992000.00,Write
8206,6154028000.00,ACK
8207,6154078000.00,Data write: 05
8208,6154304000.00,ACK
8209,6154354000.00,Start repeat
8210,6154375000.00,Address read: A1
8211,6154560000.00,Read
8212,6154596000.00,ACK
8213,6154648000.00,Data read: 8A
8214,6154891000.00,ACK
8215,6154927000.00,Data read: BB
8216,6155164000.00,ACK
8217,6155200000.00,Data read: B9
8218,6155432000.00,NACK
8219,6155471000.00,Stop
8220,6164769000.00,Start
8221,6164789000.00,Address write: A0
8222,6164975000.00,Write
8223,6165010000.00,ACK
8224,6165061000.00,Data write: 05
8225,6165287000.00,ACK
8226,6165337000.00,Start repeat
8227,6165357000.00,Address read: A1
8228,6165543000.00,Read
8229,6165578000.00,ACK
8230,6165630000.00,Data read: 8A
8231,6165874000.00,ACK
8232,6165910000.00,Data read: B9
8233,6166147000.00,ACK
8234,6166182000.00,Data read: 73
8235,6166414000.00,NACK
8236,6166453000.00,Stop
8237,6175760000.00,Start
8238,6175781000.00,Address write: A0
8239,6175966000.00,Write
8240,6176002000.00,ACK
8241,6176052000.00,Data write: 05
8242,6176278000.00,ACK
8243,6176328000.00,Start repeat
8244,6176349000.00,Address read: A1
8245,6176534000.00,Read
8246,6176570000.00,ACK
8247,6176621000.00,Data read: 8A
8248,6176865000.00,ACK
8249,6176901000.00,Data read: B7
8250,6177138000.00,ACK
8251,6177174000.00,Data read: 2B
8252,6177406000.00,NACK
8253,6177445000.00,Stop
8254,6186745000.00,Start
8255,6186766000.00,Address write: A0
8256,6186951000.00,Write
8257,6186987000.00,ACK
8258,6187037000.00,Data write: 05
8259,6187263000.00,ACK
8260,6187313000.00,Start repeat
8261,6187334000.00,Address read: A1
8262,6187520000.00,Read
8263,6187555000.00,ACK
8264,6187607000.00,Data read: 8A
8265,6187851000.00,ACK
8266,6187887000.00,Data read: B6
8267,6188124000.00,ACK
8268,6188159000.00,Data read: C7
8269,6188391000.00,NACK
8270,6188431000.00,Stop
8271,6197730000.00,Start
8272,6197751000.00,Address write: A0
8273,6197936000.00,Write
8274,6197972000.00,ACK
8275,6198022000.00,Data write: 05
8276,6198248000.00,ACK
8277,6198298000.00,Start repeat
8278,6198319000.00,Address read: A1
8279,6198504000.00,Read
8280,6198540000.00,ACK
8281,6198591000.00,Data read: 8A
8282,6198835000.00,ACK
8283,6198871000.00,Data read: B4
8284,6199108000.00,ACK
8285,6199144000.00,Data read: 9F
8286,6199375000.00,NACK
8287,6199415000.00,Stop
8288,6208721000.00,Start
8289,6208741000.00,Address write: A0
8290,6208927000.00,Write
8291,6208962000.00,ACK
8292,6209013000.00,Data write: 05
8293,6209239000.00,ACK
8294,6209289000.00,Start repeat
8295,6209310000.00,Address read: A1
8296,6209495000.00,Read
8297,6209531000.00,ACK
8298,6209582000.00,Data read: 8A
8299,6209826000.00,ACK
8300,6209862000.00,Data read: B6
8301,6210099000.00,ACK
8302,6210135000.00,Data read: 81
8303,6210367000.00,NACK
8304,6210406000.00,Stop
8305,6219707000.00,Start
8306,6219728000.00,Address write: A0
8307,6219913000.00,Write
8308,6219949000.00,ACK
8309,6219999000.00,Data write: 05
8310,6220225000.00,ACK
8311,6220275000.00,Start repeat
8312,6220296000.00,Address read: A1
8313,6220481000.00,Read
8314,6220517000.00,ACK
8315,6220568000.00,Data read: 8A
8316,6220812000.00,ACK
8317,6220848000.00,Data read: B2
8318,6221085000.00,ACK
8319,6221121000.00,Data read: F9
8320,6221353000.00,NACK
8321,6221392000.00,Stop
8322,6221414000.00,Start
8323,6221435000.00,Address write: A0
8324,6221626000.00,Write
8325,6221662000.00,ACK
8326,6221724000.00,Data write: 01
8327,6221945000.00,ACK
8328,6221995000.00,Data write: 32
8329,6222221000.00,ACK
8330,6222272000.00,Stop
8331,6242743000.00,Start
8332,6242763000.00,Address write: A0
8333,6242949000.00,Write
8334,6242984000.00,ACK
8335,6243040000.00,Data write: 05
8336,6243261000.00,ACK
8337,6243311000.00,Start repeat
8338,6243331000.00,Address read: A1
8339,6243522000.00,Read
8340,6243557000.00,ACK
8341,6243604000.00,Data read: 8A
8342,6243848000.00,ACK
8343,6243884000.00,Data read: B2
8344,6244121000.00,ACK
8345,6244156000.00,Data read: F8
8346,6244388000.00,NACK
8347,6244428000.00,Stop
8348,6253670000.00,Start
8349,6253690000.00,Address write: A0
8350,6253876000.00,Write
8351,6253911000.00,ACK
8352,6253962000.00,Data write: 05
8353,6254188000.00,ACK
8354,6254238000.00,Start repeat
8355,6254258000.00,Address read: A1
8356,6254444000.00,Read
8357,6254480000.00,ACK
8358,6254531000.00,Data read: E0
8359,6254775000.00,ACK
8360,6254811000.00,Data read: E7
8361,6255048000.00,ACK
8362,6255084000.00,Data read: 07
8363,6255316000.00,NACK
8364,6255355000.00,Stop
8365,6264656000.00,Start
8366,6264676000.00,Address write: A0
8367,6264862000.00,Write
8368,6264897000.00,ACK
8369,6264948000.00,Data write: 05
8370,6265174000.00,ACK
8371,6265224000.00,Start repeat
8372,6265245000.00,Address read: A1
8373,6265430000.00,Read
8374,6265466000.00,ACK
8375,6265517000.00,Data read: E0
8376,6265761000.00,ACK
8377,6265797000.00,Data read: E9
8378,6266034000.00,ACK
8379,6266070000.00,Data read: 35
8380,6266302000.00,NACK
8381,6266341000.00,Stop
8382,6275648000.00,Start
8383,6275668000.00,Address write: A0
8384,6275854000.00,Write
8385,6275889000.00,ACK
8386,6275940000.00,Data write: 05
8387,6276166000.00,ACK
8388,6276216000.00,Start repeat
8389,6276237000.00,Address read: A1
8390,6276422000.00,Read
8391,6276458000.00,ACK
8392,6276509000.00,Data read: E0
8393,6276753000.00,ACK
8394,6276789000.00,Data read: E8
8395,6277026000.00,ACK
8396,6277062000.00,Data read: 6B
8397,6277294000.00,NACK
8398,6277333000.00,Stop
8399,6286632000.00,Start
8400,6286652000.00,Address write: A0
8401,6286838000.00,Write
8402,6286873000.00,ACK
8403,6286924000.00,Data write: 05
8404,6287150000.00,ACK
8405,6287200000.00,Start repeat
8406,6287220000.00,Address read: A1
8407,6287406000.00,Read
8408,6287442000.00,ACK
8409,6287493000.00,Data read: E0
8410,6287737000.00,ACK
8411,6287773000.00,Data read: E6
8412,6288010000.00,ACK
8413,6288046000.00,Data read: 4F
8414,6288277000.00,NACK
8415,6288317000.00,Stop
8416,6297616000.00,Start
8417,6297636000.00,Address write: A0
8418,6297822000.00,Write
8419,6297857000.00,ACK
8420,6297908000.00,Data write: 05
8421,6298134000.00,ACK
8422,6298184000.00,Start repeat
8423,6298204000.00,Address read: A1
8424,6298390000.00,Read
8425,6298425000.00,ACK
8426,6298477000.00,Data read: E0
8427,6298721000.00,ACK
8428,6298757000.00,Data read: E4
8429,6298994000.00,ACK
8430,6299029000.00,Data read: 5D
8431,6299261000.00,NACK
8432,6299300000.00,Stop
8433,6308603000.00,Start
8434,6308623000.00,Address write: A0
8435,6308809000.00,Write
8436,6308845000.00,ACK
8437,6308895000.00,Data write: 05
8438,6309121000.00,ACK
8439,6309171000.00,Start repeat
8440,6309192000.00,Address read: A1
8441,6309377000.00,Read
8442,6309413000.00,ACK
8443,6309464000.00,Data read: E0
8444,6309708000.00,ACK
8445,6309744000.00,Data read: E3
8446,6309981000.00,ACK
8447,6310017000.00,Data read: 53
8448,6310249000.00,NACK
8449,6310288000.00,Stop
8450,6319588000.00,Start
8451,6319609000.00,Address write: A0
8452,6319794000.00,Write
8453,6319830000.00,ACK
8454,6319880000.00,Data write: 05
8455,6320106000.00,ACK
8456,6320156000.00,Start repeat
8457,6320177000.00,Address read: A1
8458,6320362000.00,Read
8459,6320398000.00,ACK
8460,6320450000.00,Data read: E0
8461,6320693000.00,ACK
8462,6320729000.00,Data read: DE
8463,6320966000.00,ACK
8464,6321002000.00,Data read: AF
8465,6321234000.00,NACK
8466,6321273000.00,Stop
8467,6330574000.00,Start
8468,6330595000.00,Address write: A0
8469,6330780000.00,Write
8470,6330816000.00,ACK
8471,6330866000.00,Data write: 05
8472,6331092000.00,ACK
8473,6331142000.00,Start repeat
8474,6331163000.00,Address read: A1
8475,6331348000.00,Read
8476,6331384000.00,ACK
8477,6331435000.00,Data read: E0
8478,6331679000.00,ACK
8479,6331715000.00,Data read: DE
8480,6331952000.00,ACK
8481,6331988000.00,Data read: 83
8482,6332219000.00,NACK
8483,6332259000.00,Stop
8484,6341555000.00,Start
8485,6341576000.00,Address write: A0
8486,6341761000.00,Write
8487,6341797000.00,ACK
8488,6341847000.00,Data write: 05
8489,6342073000.00,ACK
8490,6342123000.00,Start repeat
8491,6342144000.00,Address read: A1
8492,6342330000.00,Read
8493,6342365000.00,ACK
8494,6342417000.00,Data read: E0
8495,6342661000.00,ACK
8496,6342696000.00,Data read: DC
8497,6342933000.00,ACK
8498,6342969000.00,Data read: 21
8499,6343201000.00,NACK
8500,6343240000.00,Stop
8501,6362475000.00,Start
8502,6362497000.00,Address write: A0
8503,6362693000.00,Write
8504,6362729000.00,ACK
8505,6362779000.00,Data write: 05
8506,6363005000.00,ACK
8507,6363055000.00,Start repeat
8508,6363076000.00,Address read: A1
8509,6363262000.00,Read
8510,6363297000.00,ACK
8511,6363344000.00,Data read: E0
8512,6363593000.00,ACK
8513,6363629000.00,Data read: DB
8514,6363861000.00,ACK
8515,6363901000.00,Data read: BF
8516,6364133000.00,NACK
8517,6364173000.00,Stop
8518,6364195000.00,Start
8519,6364216000.00,Address write: A0
8520,6364406000.00,Write
8521,6364442000.00,ACK
8522,6364493000.00,Data write: 01
8523,6364725000.00,ACK
8524,6364776000.00,Data write: 33
8525,6365002000.00,ACK
8526,6365052000.00,Stop
8527,6374515000.00,Start
8528,6374536000.00,Address write: A0
8529,6374722000.00,Write
8530,6374757000.00,ACK
8531,6374808000.00,Data write: 05
8532,6375034000.00,ACK
8533,6375084000.00,Start repeat
8534,6375104000.00,Address read: A1
8535,6375290000.00,Read
8536,6375325000.00,ACK
8537,6375377000.00,Data read: E0
8538,6375621000.00,ACK
8539,6375657000.00,Data read: DB
8540,6375894000.00,ACK
8541,6375930000.00,Data read: BE
8542,6376162000.00,NACK
8543,6376201000.00,Stop
8544,6385507000.00,Start
8545,6385528000.00,Address write: A0
8546,6385714000.00,Write
8547,6385749000.00,ACK
8548,6385800000.00,Data write: 05
8549,6386026000.00,ACK
8550,6386076000.00,Start repeat
8551,6386096000.00,Address read: A1
8552,6386282000.00,Read
8553,6386317000.00,ACK
8554,6386369000.00,Data read: E0
8555,6386613000.00,ACK
8556,6386649000.00,Data read: DB
8557,6386886000.00,ACK
8558,6386921000.00,Data read: BE
8559,6387153000.00,NACK
8560,6387193000.00,Stop
8561,6396490000.00,Start
8562,6396511000.00,Address write: A0
8563,6396696000.00,Write
8564,6396732000.00,ACK
8565,6396782000.00,Data write: 05
8566,6397008000.00,ACK
8567,6397058000.00,Start repeat
8568,6397079000.00,Address read: A1
8569,6397264000.00,Read
8570,6397300000.00,ACK
8571,6397352000.00,Data read: 9F
8572,6397595000.00,ACK
8573,6397631000.00,Data read: 87
8574,6397868000.00,ACK
8575,6397904000.00,Data read: 35
8576,6398136000.00,NACK
8577,6398175000.00,Stop
8578,6407481000.00,Start
8579,6407502000.00,Address write: A0
8580,6407688000.00,Write
8581,6407723000.00,ACK
8582,6407774000.00,Data write: 05
8583,6408000000.00,ACK
8584,6408050000.00,Start repeat
8585,6408070000.00,Address read: A1
8586,6408256000.00,Read
8587,6408291000.00,ACK
8588,6408343000.00,Data read: 9F
8589,6408587000.00,ACK
8590,6408623000.00,Data read: 89
8591,6408860000.00,ACK
8592,6408896000.00,Data read: 6D
8593,6409127000.00,NACK
8594,6409167000.00,Stop
8595,6418466000.00,Start
8596,6418486000.00,Address write: A0
8597,6418672000.00,Write
8598,6418707000.00,ACK
8599,6418758000.00,Data write: 05
8600,6418984000.00,ACK
8601,6419034000.00,Start repeat
8602,6419055000.00,Address read: A1
8603,6419240000.00,Read
8604,6419276000.00,ACK
8605,6419327000.00,Data read: 9F
8606,6419571000.00,ACK
8607,6419607000.00,Data read: 81
8608,6419844000.00,ACK
8609,6419880000.00,Data read: 33
8610,6420111000.00,NACK
8611,6420151000.00,Stop
8612,6429453000.00,Start
8613,6429473000.00,Address write: A0
8614,6429659000.00,Write
8615,6429694000.00,ACK
8616,6429745000.00,Data write: 05
8617,6429971000.00,ACK
8618,6430021000.00,Start repeat
8619,6430042000.00,Address read: A1
8620,6430227000.00,Read
8621,6430263000.00,ACK
8622,6430314000.00,Data read: 9F
8623,6430558000.00,ACK
8624,6430594000.00,Data read: 87
8625,6430831000.00,ACK
8626,6430867000.00,Data read: 2B
8627,6431098000.00,NACK
8628,6431138000.00,Stop
8629,6440437000.00,Start
8630,6440457000.00,Address write: A0
8631,6440643000.00,Write
8632,6440678000.00,ACK
8633,6440729000.00,Data write: 05
8634,6440955000.00,ACK
8635,6441005000.00,Start repeat
8636,6441026000.00,Address read: A1
8637,6441211000.00,Read
8638,6441247000.00,ACK
8639,6441298000.00,Data read: 9F
8640,6441542000.00,ACK
8641,6441578000.00,Data read: 82
8642,6441815000.00,ACK
8643,6441851000.00,Data read: C3
8644,6442082000.00,NACK
8645,6442122000.00,Stop
8646,6451421000.00,Start
8647,6451441000.00,Address write: A0
8648,6451627000.00,Write
8649,6451662000.00,ACK
8650,6451713000.00,Data write: 05
8651,6451939000.00,ACK
8652,6451989000.00,Start repeat
8653,6452009000.00,Address read: A1
8654,6452195000.00,Read
8655,6452230000.00,ACK
8656,6452282000.00,Data read: 9F
8657,6452526000.00,ACK
8658,6452562000.00,Data read: 88
8659,6452798000.00,ACK
8660,6452834000.00,Data read: 13
8661,6453066000.00,NACK
8662,6453105000.00,Stop
8663,6480608000.00,Start
8664,6480629000.00,Address write: A0
8665,6480819000.00,Write
8666,6480855000.00,ACK
8667,6480905000.00,Data write: 05
8668,6481126000.00,ACK
8669,6481176000.00,Start repeat
8670,6481197000.00,Address read: A1
8671,6481399000.00,Read
8672,6481435000.00,ACK
8673,6481481000.00,Data read: 9F
8674,6481718000.00,ACK
8675,6481754000.00,Data read: 81
8676,6481986000.00,ACK
8677,6482021000.00,Data read: 33
8678,6482258000.00,NACK
8679,6482298000.00,Stop
8680,6491362000.00,Start
8681,6491382000.00,Address write: A0
8682,6491568000.00,Write
8683,6491604000.00,ACK
8684,6491654000.00,Data write: 05
8685,6491880000.00,ACK
8686,6491930000.00,Start repeat
8687,6491951000.00,Address read: A1
8688,6492136000.00,Read
8689,6492172000.00,ACK
8690,6492223000.00,Data read: 9F
8691,6492467000.00,ACK
8692,6492503000.00,Data read: 85
8693,6492740000.00,ACK
8694,6492776000.00,Data read: 71
8695,6493008000.00,NACK
8696,6493047000.00,Stop
8697,6502353000.00,Start
8698,6502373000.00,Address write: A0
8699,6502559000.00,Write
8700,6502594000.00,ACK
8701,6502645000.00,Data write: 05
8702,6502871000.00,ACK
8703,6502921000.00,Start repeat
8704,6502941000.00,Address read: A1
8705,6503127000.00,Read
8706,6503162000.00,ACK
8707,6503214000.00,Data read: 9F
8708,6503458000.00,ACK
8709,6503494000.00,Data read: 80
8710,6503731000.00,ACK
8711,6503766000.00,Data read: B5
8712,6503998000.00,NACK
8713,6504038000.00,Stop
8714,6513337000.00,Start
8715,6513357000.00,Address write: A0
8716,6513543000.00,Write
8717,6513578000.00,ACK
8718,6513629000.00,Data write: 05
8719,6513855000.00,ACK
8720,6513905000.00,Start repeat
8721,6513925000.00,Address read: A1
8722,6514111000.00,Read
8723,6514146000.00,ACK
8724,6514198000.00,Data read: 9F
8725,6514442000.00,ACK
8726,6514478000.00,Data read: 87
8727,6514715000.00,ACK
8728,6514751000.00,Data read: B9
8729,6514982000.00,NACK
8730,6515022000.00,Stop
8731,6515044000.00,Start
8732,6515065000.00,Address write: A0
8733,6515255000.00,Write
8734,6515292000.00,ACK
8735,6515353000.00,Data write: 01
8736,6515574000.00,ACK
8737,6515625000.00,Data write: 31
8738,6515851000.00,ACK
8739,6515901000.00,Stop
8740,6525318000.00,Start
8741,6525339000.00,Address write: A0
8742,6525524000.00,Write
8743,6525560000.00,ACK
8744,6525610000.00,Data write: 05
8745,6525836000.00,ACK
8746,6525886000.00,Start repeat
8747,6525907000.00,Address read: A1
8748,6526093000.00,Read
8749,6526128000.00,ACK
8750,6526180000.00,Data read: 9F
8751,6526424000.00,ACK
8752,6526460000.00,Data read: 87
8753,6526696000.00,ACK
8754,6526732000.00,Data read: B8
8755,6526964000.00,NACK
8756,6527003000.00,Stop
8757,6536309000.00,Start
8758,6536329000.00,Address write: A0
8759,6536515000.00,Write
8760,6536550000.00,ACK
8761,6536601000.00,Data write: 05
8762,6536827000.00,ACK
8763,6536877000.00,Start repeat
8764,6536897000.00,Address read: A1
8765,6537083000.00,Read
8766,6537119000.00,ACK
8767,6537170000.00,Data read: 9F
8768,6537414000.00,ACK
8769,6537450000.00,Data read: 87
8770,6537687000.00,ACK
8771,6537723000.00,Data read: B8
8772,6537954000.00,NACK
8773,6537994000.00,Stop
8774,6547293000.00,Start
8775,6547314000.00,Address write: A0
8776,6547499000.00,Write
8777,6547535000.00,ACK
8778,6547585000.00,Data write: 05
8779,6547811000.00,ACK
8780,6547861000.00,Start repeat
8781,6547882000.00,Address read: A1
8782,6548068000.00,Read
8783,6548103000.00,ACK
8784,6548155000.00,Data read: 8A
8785,6548399000.00,ACK
8786,6548434000.00,Data read: C9
8787,6548671000.00,ACK
8788,6548707000.00,Data read: 85
8789,6548939000.00,NACK
8790,6548978000.00,Stop
8791,6558285000.00,Start
8792,6558305000.00,Address write: A0
8793,6558491000.00,Write
8794,6558526000.00,ACK
8795,6558577000.00,Data write: 05
8796,6558803000.00,ACK
8797,6558853000.00,Start repeat
8798,6558873000.00,Address read: A1
8799,6559059000.00,Read
8800,6559094000.00,ACK
8801,6559146000.00,Data read: 8A
8802,6559390000.00,ACK
8803,6559426000.00,Data read: BE
8804,6559662000.00,ACK
8805,6559698000.00,Data read: 2B
8806,6559930000.00,NACK
8807,6559969000.00,Stop
8808,6569263000.00,Start
8809,6569283000.00,Address write: A0
8810,6569469000.00,Write
8811,6569504000.00,ACK
8812,6569555000.00,Data write: 05
8813,6569781000.00,ACK
8814,6569831000.00,Start repeat
8815,6569851000.00,Address read: A1
8816,6570037000.00,Read
8817,6570073000.00,ACK
8818,6570124000.00,Data read: 8A
8819,6570368000.00,ACK
8820,6570404000.00,Data read: BC
8821,6570641000.00,ACK
8822,6570677000.00,Data read: 75
8823,6570908000.00,NACK
8824,6570948000.00,Stop
8825,6580245000.00,Start
8826,6580266000.00,Address write: A0
8827,6580451000.00,Write
8828,6580487000.00,ACK
8829,6580537000.00,Data write: 05
8830,6580763000.00,ACK
8831,6580813000.00,Start repeat
8832,6580834000.00,Address read: A1
8833,6581019000.00,Read
8834,6581055000.00,ACK
8835,6581106000.00,Data read: 8A
8836,6581350000.00,ACK
8837,6581386000.00,Data read: B8
8838,6581622000.00,ACK
8839,6581658000.00,Data read: F3
8840,6581890000.00,NACK
8841,6581929000.00,Stop
8842,6601162000.00,Start
8843,6601183000.00,Address write: A0
8844,6601380000.00,Write
8845,6601415000.00,ACK
8846,6601466000.00,Data write: 05
8847,6601692000.00,ACK
8848,6601742000.00,Start repeat
8849,6601762000.00,Address read: A1
8850,6601948000.00,Read
8851,6601983000.00,ACK
8852,6602030000.00,Data read: 8A
8853,6602279000.00,ACK
8854,6602315000.00,Data read: B6
8855,6602547000.00,ACK
8856,6602587000.00,Data read: 6F
8857,6602819000.00,NACK
8858,6602859000.00,Stop
8859,6612206000.00,Start
8860,6612227000.00,Address write: A0
8861,6612412000.00,Write
8862,6612448000.00,ACK
8863,6612498000.00,Data write: 05
8864,6612724000.00,ACK
8865,6612774000.00,Start repeat
8866,6612795000.00,Address read: A1
8867,6612980000.00,Read
8868,6613016000.00,ACK
8869,6613067000.00,Data read: 8A
8870,6613311000.00,ACK
8871,6613347000.00,Data read: B8
8872,6613584000.00,ACK
8873,6613620000.00,Data read: 47
8874,6613852000.00,NACK
8875,6613891000.00,Stop
8876,6623186000.00,Start
8877,6623206000.00,Address write: A0
8878,6623392000.00,Write
8879,6623427000.00,ACK
8880,6623478000.00,Data write: 05
8881,6623704000.00,ACK
8882,6623754000.00,Start repeat
8883,6623774000.00,Address read: A1
8884,6623960000.00,Read
8885,6623995000.00,ACK
8886,6624047000.00,Data read: 8A
8887,6624291000.00,ACK
8888,6624327000.00,Data read: B7
8889,6624563000.00,ACK
8890,6624599000.00,Data read: 93
8891,6624831000.00,NACK
8892,6624870000.00,Stop
8893,6634176000.00,Start
8894,6634196000.00,Address write: A0
8895,6634382000.00,Write
8896,6634417000.00,ACK
8897,6634468000.00,Data write: 05
8898,6634694000.00,ACK
8899,6634744000.00,Start repeat
8900,6634764000.00,Address read: A1
8901,6634950000.00,Read
8902,6634985000.00,ACK
8903,6635037000.00,Data read: 8A
8904,6635281000.00,ACK
8905,6635317000.00,Data read: B5
8906,6635554000.00,ACK
8907,6635589000.00,Data read: 4D
8908,6635821000.00,NACK
8909,6635861000.00,Stop
8910,6645159000.00,Start
8911,6645179000.00,Address write: A0
8912,6645365000.00,Write
8913,6645400000.00,ACK
8914,6645451000.00,Data write: 05
8915,6645677000.00,ACK
8916,6645727000.00,Start repeat
8917,6645747000.00,Address read: A1
8918,6645933000.00,Read
8919,6645968000.00,ACK
8920,6646020000.00,Data read: 8A
8921,6646264000.00,ACK
8922,6646300000.00,Data read: B5
8923,6646537000.00,ACK
8924,6646573000.00,Data read: 1F
8925,6646804000.00,NACK
8926,6646844000.00,Stop
8927,6656150000.00,Start
8928,6656171000.00,Address write: A0
8929,6656356000.00,Write
8930,6656392000.00,ACK
8931,6656442000.00,Data write: 05
8932,6656668000.00,ACK
8933,6656718000.00,Start repeat
8934,6656739000.00,Address read: A1
8935,6656924000.00,Read
8936,6656960000.00,ACK
8937,6657012000.00,Data read: 8A
8938,6657255000.00,ACK
8939,6657291000.00,Data read: B2
8940,6657528000.00,ACK
8941,6657564000.00,Data read: 81
8942,6657795000.00,NACK
8943,6657835000.00,Stop
8944,6657857000.00,Start
8945,6657877000.00,Address write: A0
8946,6658068000.00,Write
8947,6658104000.00,ACK
8948,6658166000.00,Data write: 01
8949,6658387000.00,ACK
8950,6658437000.00,Data write: 32
8951,6658663000.00,ACK
8952,6658713000.00,Stop
8953,6669129000.00,Start
8954,6669150000.00,Address write: A0
8955,6669335000.00,Write
8956,6669371000.00,ACK
8957,6669421000.00,Data write: 05
8958,6669647000.00,ACK
8959,6669697000.00,Start repeat
8960,6669718000.00,Address read: A1
8961,6669903000.00,Read
8962,6669939000.00,ACK
8963,6669991000.00,Data read: 8A
8964,6670234000.00,ACK
8965,6670270000.00,Data read: B2
8966,6670507000.00,ACK
8967,6670543000.00,Data read: 80
8968,6670775000.00,NACK
8969,6670814000.00,Stop
8970,6680114000.00,Start
8971,6680135000.00,Address write: A0
8972,6680320000.00,Write
8973,6680356000.00,ACK
8974,6680406000.00,Data write: 05
8975,6680632000.00,ACK
8976,6680682000.00,Start repeat
8977,6680703000.00,Address read: A1
8978,6680888000.00,Read
8979,6680924000.00,ACK
8980,6680975000.00,Data read: 8A
8981,6681219000.00,ACK
8982,6681255000.00,Data read: B2
8983,6681492000.00,ACK
8984,6681528000.00,Data read: 80
8985,6681760000.00,NACK
8986,6681799000.00,Stop
8987,6691105000.00,Start
8988,6691125000.00,Address write: A0
8989,6691311000.00,Write
8990,6691346000.00,ACK
8991,6691397000.00,Data write: 05
8992,6691623000.00,ACK
8993,6691673000.00,Start repeat
8994,6691694000.00,Address read: A1
8995,6691879000.00,Read
8996,6691915000.00,ACK
8997,6691966000.00,Data read: E0
8998,6692210000.00,ACK
8999,6692246000.00,Data read: E1
9000,6692483000.00,ACK
9001,6692519000.00,Data read: 35
9002,6692751000.00,NACK
9003,6692790000.00,Stop
9004,6719287000.00,Start
9005,6719307000.00,Address write: A0
9006,6719498000.00,Write
9007,6719533000.00,ACK
9008,6719584000.00,Data write: 05
9009,6719805000.00,ACK
9010,6719855000.00,Start repeat
9011,6719875000.00,Address read: A1
9012,6720078000.00,Read
9013,6720113000.00,ACK
9014,6720160000.00,Data read: E0
9015,6720392000.00,ACK
9016,6720433000.00,Data read: DC
9017,6720665000.00,ACK
9018,6720700000.00,Data read: 01
9019,6720937000.00,NACK
9020,6720977000.00,Stop
9021,6730049000.00,Start
9022,6730069000.00,Address write: A0
9023,6730255000.00,Write
9024,6730290000.00,ACK
9025,6730341000.00,Data write: 05
9026,6730567000.00,ACK
9027,6730617000.00,Start repeat
9028,6730637000.00,Address read: A1
9029,6730823000.00,Read
9030,6730858000.00,ACK
9031,6730910000.00,Data read: E0
9032,6731154000.00,ACK
9033,6731190000.00,Data read: DD
9034,6731427000.00,ACK
9035,6731462000.00,Data read: 73
9036,6731694000.00,NACK
9037,6731734000.00,Stop
9038,6741034000.00,Start
9039,6741054000.00,Address write: A0
9040,6741240000.00,Write
9041,6741275000.00,ACK
9042,6741326000.00,Data write: 05
9043,6741552000.00,ACK
9044,6741602000.00,Start repeat
9045,6741622000.00,Address read: A1
9046,6741808000.00,Read
9047,6741843000.00,ACK
9048,6741895000.00,Data read: E0
9049,6742139000.00,ACK
9050,6742175000.00,Data read: DC
9051,6742412000.00,ACK
9052,6742448000.00,Data read: 75
9053,6742679000.00,NACK
9054,6742719000.00,Stop
9055,6752014000.00,Start
9056,6752035000.00,Address write: A0
9057,6752220000.00,Write
9058,6752256000.00,ACK
9059,6752306000.00,Data write: 05
9060,6752532000.00,ACK
9061,6752582000.00,Start repeat
9062,6752603000.00,Address read: A1
9063,6752788000.00,Read
9064,6752824000.00,ACK
9065,6752875000.00,Data read: E0
9066,6753119000.00,ACK
9067,6753155000.00,Data read: DE
9068,6753392000.00,ACK
9069,6753428000.00,Data read: 61
9070,6753659000.00,NACK
9071,6753699000.00,Stop
9072,6763005000.00,Start
9073,6763025000.00,Address write: A0
9074,6763211000.00,Write
9075,6763246000.00,ACK
9076,6763297000.00,Data write: 05
9077,6763523000.00,ACK
9078,6763573000.00,Start repeat
9079,6763593000.00,Address read: A1
9080,6763779000.00,Read
9081,6763815000.00,ACK
9082,6763866000.00,Data read: E0
9083,6764110000.00,ACK
9084,6764146000.00,Data read: DD
9085,6764383000.00,ACK
9086,6764419000.00,Data read: B9
9087,6764651000.00,NACK
9088,6764690000.00,Stop
9089,6773989000.00,Start
9090,6774009000.00,Address write: A0
9091,6774195000.00,Write
9092,6774230000.00,ACK
9093,6774281000.00,Data write: 05
9094,6774507000.00,ACK
9095,6774557000.00,Start repeat
9096,6774577000.00,Address read: A1
9097,6774763000.00,Read
9098,6774798000.00,ACK
9099,6774850000.00,Data read: E0
9100,6775094000.00,ACK
9101,6775130000.00,Data read: E0
9102,6775367000.00,ACK
9103,6775403000.00,Data read: 11
9104,6775635000.00,NACK
9105,6775674000.00,Stop
9106,6784973000.00,Start
9107,6784993000.00,Address write: A0
9108,6785179000.00,Write
9109,6785215000.00,ACK
9110,6785265000.00,Data write: 05
9111,6785491000.00,ACK
9112,6785541000.00,Start repeat
9113,6785562000.00,Address read: A1
9114,6785747000.00,Read
9115,6785783000.00,ACK
9116,6785834000.00,Data read: E0
9117,6786078000.00,ACK
9118,6786114000.00,Data read: E0
9119,6786351000.00,ACK
9120,6786387000.00,Data read: 7F
9121,6786619000.00,NACK
9122,6786658000.00,Stop
9123,6795965000.00,Start
9124,6795985000.00,Address write: A0
9125,6796171000.00,Write
9126,6796207000.00,ACK
9127,6796257000.00,Data write: 05
9128,6796483000.00,ACK
9129,6796533000.00,Start repeat
9130,6796554000.00,Address read: A1
9131,6796739000.00,Read
9132,6796775000.00,ACK
9133,6796826000.00,Data read: E0
9134,6797070000.00,ACK
9135,6797106000.00,Data read: E0
9136,6797343000.00,ACK
9137,6797379000.00,Data read: 5F
9138,6797611000.00,NACK
9139,6797650000.00,Stop
9140,6806948000.00,Start
9141,6806968000.00,Address write: A0
9142,6807154000.00,Write
9143,6807190000.00,ACK
9144,6807240000.00,Data write: 05
9145,6807466000.00,ACK
9146,6807516000.00,Start repeat
9147,6807537000.00,Address read: A1
9148,6807722000.00,Read
9149,6807758000.00,ACK
9150,6807809000.00,Data read: E0
9151,6808053000.00,ACK
9152,6808089000.00,Data read: E1
9153,6808326000.00,ACK
9154,6808362000.00,Data read: 7F
9155,6808593000.00,NACK
9156,6808633000.00,Stop
9157,6808655000.00,Start
9158,6808676000.00,Address write: A0
9159,6808866000.00,Write
9160,6808903000.00,ACK
9161,6808964000.00,Data write: 01
9162,6809185000.00,ACK
9163,6809236000.00,Data write: 33
9164,6809462000.00,ACK
9165,6809512000.00,Stop
9166,6838134000.00,Start
9167,6838155000.00,Address write: A0
9168,6838346000.00,Write
9169,6838381000.00,ACK
9170,6838431000.00,Data write: 05
9171,6838652000.00,ACK
9172,6838702000.00,Start repeat
9173,6838723000.00,Address read: A1
9174,6838926000.00,Read
9175,6838961000.00,ACK
9176,6839008000.00,Data read: 9F
9177,6839240000.00,ACK
9178,6839280000.00,Data read: 7C
9179,6839512000.00,ACK
9180,6839548000.00,Data read: 7D
9181,6839785000.00,NACK
9182,6839825000.00,Stop
9183,6848898000.00,Start
9184,6848919000.00,Address write: A0
9185,6849104000.00,Write
9186,6849140000.00,ACK
9187,6849190000.00,Data write: 05
9188,6849416000.00,ACK
9189,6849466000.00,Start repeat
9190,6849487000.00,Address read: A1
9191,6849672000.00,Read
9192,6849708000.00,ACK
9193,6849759000.00,Data read: 9F
9194,6850003000.00,ACK
9195,6850039000.00,Data read: 81
9196,6850276000.00,ACK
9197,6850312000.00,Data read: 93
9198,6850544000.00,NACK
9199,6850583000.00,Stop
9200,6859882000.00,Start
9201,6859903000.00,Address write: A0
9202,6860088000.00,Write
9203,6860124000.00,ACK
9204,6860174000.00,Data write: 05
9205,6860400000.00,ACK
9206,6860450000.00,Start repeat
9207,6860471000.00,Address read: A1
9208,6860657000.00,Read
9209,6860692000.00,ACK
9210,6860744000.00,Data read: 9F
9211,6860988000.00,ACK
9212,6861024000.00,Data read: 7D
9213,6861261000.00,ACK
9214,6861296000.00,Data read: 6D
9215,6861528000.00,NACK
9216,6861568000.00,Stop
9217,6870867000.00,Start
9218,6870888000.00,Address write: A0
9219,6871073000.00,Write
9220,6871109000.00,ACK
9221,6871159000.00,Data write: 05
9222,6871385000.00,ACK
9223,6871435000.00,Start repeat
9224,6871456000.00,Address read: A1
9225,6871641000.00,Read
9226,6871677000.00,ACK
9227,6871729000.00,Data read: 9F
9228,6871972000.00,ACK
9229,6872008000.00,Data read: 84
9230,6872245000.00,ACK
9231,6872281000.00,Data read: B7
9232,6872513000.00,NACK
9233,6872552000.00,Stop
9234,6881858000.00,Start
9235,6881879000.00,Address write: A0
9236,6882064000.00,Write
9237,6882100000.00,ACK
9238,6882150000.00,Data write: 05
9239,6882376000.00,ACK
9240,6882426000.00,Start repeat
9241,6882447000.00,Address read: A1
9242,6882632000.00,Read
9243,6882668000.00,ACK
9244,6882720000.00,Data read: 9F
9245,6882963000.00,ACK
9246,6882999000.00,Data read: 7C
9247,6883236000.00,ACK
9248,6883272000.00,Data read: AB
9249,6883504000.00,NACK
9250,6883543000.00,Stop
9251,6892842000.00,Start
9252,6892862000.00,Address write: A0
9253,6893048000.00,Write
9254,6893083000.00,ACK
9255,6893134000.00,Data write: 05
9256,6893360000.00,ACK
9257,6893410000.00,Start repeat
9258,6893430000.00,Address read: A1
9259,6893616000.00,Read
9260,6893651000.00,ACK
9261,6893703000.00,Data read: 9F
9262,6893947000.00,ACK
9263,6893983000.00,Data read: 85
9264,6894220000.00,ACK
9265,6894256000.00,Data read: 29
9266,6894488000.00,NACK
9267,6894527000.00,Stop
9268,6903825000.00,Start
9269,6903846000.00,Address write: A0
9270,6904031000.00,Write
9271,6904067000.00,ACK
9272,6904117000.00,Data write: 05
9273,6904343000.00,ACK
9274,6904393000.00,Start repeat
9275,6904414000.00,Address read: A1
9276,6904600000.00,Read
9277,6904635000.00,ACK
9278,6904687000.00,Data read: 9F
9279,6904931000.00,ACK
9280,6904966000.00,Data read: 80
9281,6905203000.00,ACK
9282,6905239000.00,Data read: 2B
9283,6905471000.00,NACK
9284,6905510000.00,Stop
9285,6914815000.00,Start
9286,6914836000.00,Address write: A0
9287,6915021000.00,Write
9288,6915057000.00,ACK
9289,6915107000.00,Data write: 05
9290,6915333000.00,ACK
9291,6915383000.00,Start repeat
9292,6915404000.00,Address read: A1
9293,6915590000.00,Read
9294,6915625000.00,ACK
9295,6915677000.00,Data read: 9F
9296,6915921000.00,ACK
9297,6915957000.00,Data read: 81
9298,6916193000.00,ACK
9299,6916229000.00,Data read: 83
9300,6916461000.00,NACK
9301,6916500000.00,Stop
9302,6925799000.00,Start
9303,6925820000.00,Address write: A0
9304,6926005000.00,Write
9305,6926040000.00,ACK
9306,6926091000.00,Data write: 05
9307,6926317000.00,ACK
9308,6926367000.00,Start repeat
9309,6926387000.00,Address read: A1
9310,6926573000.00,Read
9311,6926608000.00,ACK
9312,6926660000.00,Data read: 9F
9313,6926904000.00,ACK
9314,6926940000.00,Data read: 7C
9315,6927177000.00,ACK
9316,6927212000.00,Data read: 07
9317,6927444000.00,NACK
9318,6927483000.00,Stop
9319,6936781000.00,Start
9320,6936802000.00,Address write: A0
9321,6936987000.00,Write
9322,6937023000.00,ACK
9323,6937073000.00,Data write: 05
9324,6937299000.00,ACK
9325,6937349000.00,Start repeat
9326,6937370000.00,Address read: A1
9327,6937555000.00,Read
9328,6937591000.00,ACK
9329,6937642000.00,Data read: 9F
9330,6937886000.00,ACK
9331,6937922000.00,Data read: 7B
9332,6938159000.00,ACK
9333,6938195000.00,Data read: 73
9334,6938427000.00,NACK
9335,6938466000.00,Stop
9336,6938488000.00,Start
9337,6938509000.00,Address write: A0
9338,6938700000.00,Write
9339,6938736000.00,ACK
9340,6938798000.00,Data write: 01
9341,6939019000.00,ACK
9342,6939069000.00,Data write: 31
9343,6939295000.00,ACK
9344,6939345000.00,Stop
9345,6958782000.00,Start
9346,6958802000.00,Address write: A0
9347,6958988000.00,Write
9348,6959023000.00,ACK
9349,6959074000.00,Data write: 05
9350,6959300000.00,ACK
9351,6959350000.00,Start repeat
9352,6959370000.00,Address read: A1
9353,6959556000.00,Read
9354,6959596000.00,ACK
9355,6959643000.00,Data read: 9F
9356,6959887000.00,ACK
9357,6959923000.00,Data read: 7B
9358,6960159000.00,ACK
9359,6960195000.00,Data read: 72
9360,6960427000.00,NACK
9361,6960466000.00,Stop
9362,6969730000.00,Start
9363,6969751000.00,Address write: A0
9364,6969936000.00,Write
9365,6969971000.00,ACK
9366,6970022000.00,Data write: 05
9367,6970248000.00,ACK
9368,6970298000.00,Start repeat
9369,6970318000.00,Address read: A1
9370,6970504000.00,Read
9371,6970539000.00,ACK
9372,6970591000.00,Data read: 8A
9373,6970835000.00,ACK
9374,6970871000.00,Data read: C9
9375,6971107000.00,ACK
9376,6971143000.00,Data read: 13
9377,6971375000.00,NACK
9378,6971414000.00,Stop
9379,6980716000.00,Start
9380,6980736000.00,Address write: A0
9381,6980922000.00,Write
9382,6980957000.00,ACK
9383,6981008000.00,Data write: 05
9384,6981234000.00,ACK
9385,6981284000.00,Start repeat
9386,6981304000.00,Address read: A1
9387,6981490000.00,Read
9388,6981525000.00,ACK
9389,6981577000.00,Data read: 8A
9390,6981821000.00,ACK
9391,6981857000.00,Data read: C1
9392,6982094000.00,ACK
9393,6982129000.00,Data read: 67
9394,6982361000.00,NACK
9395,6982401000.00,Stop
9396,6991697000.00,Start
9397,6991718000.00,Address write: A0
9398,6991903000.00,Write
9399,6991939000.00,ACK
9400,6991989000.00,Data write: 05
9401,6992215000.00,ACK
9402,6992265000.00,Start repeat
9403,6992286000.00,Address read: A1
9404,6992471000.00,Read
9405,6992507000.00,ACK
9406,6992558000.00,Data read: 8A
9407,6992802000.00,ACK
9408,6992838000.00,Data read: BB
9409,6993075000.00,ACK
9410,6993111000.00,Data read: 61
9411,6993343000.00,NACK
9412,6993382000.00,Stop
9413,7002681000.00,Start
9414,7002702000.00,Address write: A0
9415,7002887000.00,Write
9416,7002923000.00,ACK
9417,7002973000.00,Data write: 05
9418,7003199000.00,ACK
9419,7003249000.00,Start repeat
9420,7003269000.00,Address read: A1
9421,7003455000.00,Read
9422,7003490000.00,ACK
9423,7003542000.00,Data read: 8A
9424,7003785000.00,ACK
9425,7003821000.00,Data read: BA
9426,7004058000.00,ACK
9427,7004094000.00,Data read: BF
9428,7004325000.00,NACK
9429,7004365000.00,Stop
9430,7013662000.00,Start
9431,7013682000.00,Address write: A0
9432,7013868000.00,Write
9433,7013903000.00,ACK
9434,7013954000.00,Data write: 05
9435,7014180000.00,ACK
9436,7014230000.00,Start repeat
9437,7014251000.00,Address read: A1
9438,7014436000.00,Read
9439,7014472000.00,ACK
9440,7014523000.00,Data read: 8A
9441,7014767000.00,ACK
9442,7014803000.00,Data read: B7
9443,7015040000.00,ACK
9444,7015075000.00,Data read: 4B
9445,7015307000.00,NACK
9446,7015347000.00,Stop
9447,7024644000.00,Start
9448,7024665000.00,Address write: A0
9449,7024850000.00,Write
9450,7024886000.00,ACK
9451,7024936000.00,Data write: 05
9452,7025162000.00,ACK
9453,7025212000.00,Start repeat
9454,7025233000.00,Address read: A1
9455,7025418000.00,Read
9456,7025454000.00,ACK
9457,7025505000.00,Data read: 8A
9458,7025749000.00,ACK
9459,7025785000.00,Data read: B7
9460,7026022000.00,ACK
9461,7026057000.00,Data read: D7
9462,7026289000.00,NACK
9463,7026328000.00,Stop
9464,7035628000.00,Start
9465,7035648000.00,Address write: A0
9466,7035834000.00,Write
9467,7035869000.00,ACK
9468,7035920000.00,Data write: 05
9469,7036146000.00,ACK
9470,7036196000.00,Start repeat
9471,7036216000.00,Address read: A1
9472,7036402000.00,Read
9473,7036437000.00,ACK
9474,7036489000.00,Data read: 8A
9475,7036733000.00,ACK
9476,7036768000.00,Data read: B4
9477,7037005000.00,ACK
9478,7037041000.00,Data read: AB
9479,7037273000.00,NACK
9480,7037312000.00,Stop
9481,7046607000.00,Start
9482,7046628000.00,Address write: A0
9483,7046813000.00,Write
9484,7046849000.00,ACK
9485,7046899000.00,Data write: 05
9486,7047125000.00,ACK
9487,7047175000.00,Start repeat
9488,7047196000.00,Address read: A1
9489,7047382000.00,Read
9490,7047417000.00,ACK
9491,7047469000.00,Data read: 8A
9492,7047712000.00,ACK
9493,7047748000.00,Data read: B5
9494,7047985000.00,ACK
9495,7048021000.00,Data read: 5F
9496,7048253000.00,NACK
9497,7048292000.00,Stop
9498,7057587000.00,Start
9499,7057607000.00,Address write: A0
9500,7057793000.00,Write
9501,7057828000.00,ACK
9502,7057879000.00,Data write: 05
9503,7058105000.00,ACK
9504,7058155000.00,Start repeat
9505,7058175000.00,Address read: A1
9506,7058361000.00,Read
9507,7058396000.00,ACK
9508,7058448000.00,Data read: 8A
9509,7058691000.00,ACK
9510,7058727000.00,Data read: B2
9511,7058964000.00,ACK
9512,7059000000.00,Data read: 9F
9513,7059232000.00,NACK
9514,7059271000.00,Stop
9515,7078504000.00,Start
9516,7078525000.00,Address write: A0
9517,7078722000.00,Write
9518,7078758000.00,ACK
9519,7078808000.00,Data write: 05
9520,7079034000.00,ACK
9521,7079084000.00,Start repeat
9522,7079105000.00,Address read: A1
9523,7079290000.00,Read
9524,7079326000.00,ACK
9525,7079372000.00,Data read: 8A
9526,7079621000.00,ACK
9527,7079657000.00,Data read: B4
9528,7079889000.00,ACK
9529,7079930000.00,Data read: 01
9530,7080162000.00,NACK
9531,7080201000.00,Stop
9532,7080223000.00,Start
9533,7080244000.00,Address write: A0
9534,7080435000.00,Write
9535,7080470000.00,ACK
9536,7080522000.00,Data write: 01
9537,7080754000.00,ACK
9538,7080804000.00,Data write: 32
9539,7081030000.00,ACK
9540,7081080000.00,Stop
9541,7091544000.00,Start
9542,7091564000.00,Address write: A0
9543,7091750000.00,Write
9544,7091785000.00,ACK
9545,7091836000.00,Data write: 05
9546,7092062000.00,ACK
9547,7092112000.00,Start repeat
9548,7092132000.00,Address read: A1
9549,7092318000.00,Read
9550,7092353000.00,ACK
9551,7092405000.00,Data read: 8A
9552,7092648000.00,ACK
9553,7092684000.00,Data read: B4
9554,7092921000.00,ACK
9555,7092957000.00,Data read: 00
9556,7093188000.00,NACK
9557,7093228000.00,Stop
9558,7102523000.00,Start
9559,7102543000.00,Address write: A0
9560,7102729000.00,Write
9561,7102764000.00,ACK
9562,7102815000.00,Data write: 05
9563,7103041000.00,ACK
9564,7103091000.00,Start repeat
9565,7103111000.00,Address read: A1
9566,7103297000.00,Read
9567,7103332000.00,ACK
9568,7103384000.00,Data read: 8A
9569,7103628000.00,ACK
9570,7103664000.00,Data read: B4
9571,7103901000.00,ACK
9572,7103937000.00,Data read: 00
9573,7104168000.00,NACK
9574,7104208000.00,Stop
9575,7113513000.00,Start
9576,7113534000.00,Address write: A0
9577,7113719000.00,Write
9578,7113755000.00,ACK
9579,7113805000.00,Data write: 05
9580,7114031000.00,ACK
9581,7114081000.00,Start repeat
9582,7114102000.00,Address read: A1
9583,7114287000.00,Read
9584,7114323000.00,ACK
9585,7114375000.00,Data read: E0
9586,7114618000.00,ACK
9587,7114654000.00,Data read: CA
9588,7114891000.00,ACK
9589,7114927000.00,Data read: 37
9590,7115159000.00,NACK
9591,7115198000.00,Stop
9592,7124496000.00,Start
9593,7124517000.00,Address write: A0
9594,7124702000.00,Write
9595,7124738000.00,ACK
9596,7124788000.00,Data write: 05
9597,7125014000.00,ACK
9598,7125064000.00,Start repeat
9599,7125085000.00,Address read: A1
9600,7125271000.00,Read
9601,7125306000.00,ACK
9602,7125358000.00,Data read: E0
9603,7125602000.00,ACK
9604,7125637000.00,Data read: C7
9605,7125874000.00,ACK
9606,7125910000.00,Data read: 53
9607,7126142000.00,NACK
9608,7126181000.00,Stop
9609,7135484000.00,Start
9610,7135505000.00,Address write: A0
9611,7135690000.00,Write
9612,7135726000.00,ACK
9613,7135776000.00,Data write: 05
9614,7136002000.00,ACK
9615,7136052000.00,Start repeat
9616,7136073000.00,Address read: A1
9617,7136258000.00,Read
9618,7136294000.00,ACK
9619,7136345000.00,Data read: E0
9620,7136589000.00,ACK
9621,7136625000.00,Data read: C6
9622,7136862000.00,ACK
9623,7136898000.00,Data read: 2F
9624,7137130000.00,NACK
9625,7137169000.00,Stop
9626,7146467000.00,Start
9627,7146488000.00,Address write: A0
9628,7146673000.00,Write
9629,7146709000.00,ACK
9630,7146759000.00,Data write: 05
9631,7146985000.00,ACK
9632,7147035000.00,Start repeat
9633,7147056000.00,Address read: A1
9634,7147241000.00,Read
9635,7147277000.00,ACK
9636,7147328000.00,Data read: E0
9637,7147572000.00,ACK
9638,7147608000.00,Data read: C6
9639,7147845000.00,ACK
9640,7147880000.00,Data read: 65
9641,7148112000.00,NACK
9642,7148151000.00,Stop
9643,7157445000.00,Start
9644,7157465000.00,Address write: A0
9645,7157651000.00,Write
9646,7157686000.00,ACK
9647,7157736000.00,Data write: 05
9648,7157962000.00,ACK
9649,7158012000.00,Start repeat
9650,7158033000.00,Address read: A1
9651,7158218000.00,Read
9652,7158254000.00,ACK
9653,7158306000.00,Data read: E0
9654,7158549000.00,ACK
9655,7158585000.00,Data read: CB
9656,7158822000.00,ACK
9657,7158858000.00,Data read: CB
9658,7159089000.00,NACK
9659,7159129000.00,Stop
9660,7168432000.00,Start
9661,7168452000.00,Address write: A0
9662,7168638000.00,Write
9663,7168673000.00,ACK
9664,7168724000.00,Data write: 05
9665,7168949000.00,ACK
9666,7168999000.00,Start repeat
9667,7169020000.00,Address read: A1
9668,7169205000.00,Read
9669,7169241000.00,ACK
9670,7169292000.00,Data read: E0
9671,7169536000.00,ACK
9672,7169572000.00,Data read: CF
9673,7169809000.00,ACK
9674,7169844000.00,Data read: 6F
9675,7170076000.00,NACK
9676,7170115000.00,Stop
9677,7196610000.00,Start
9678,7196631000.00,Address write: A0
9679,7196821000.00,Write
9680,7196857000.00,ACK
9681,7196907000.00,Data write: 05
9682,7197128000.00,ACK
9683,7197178000.00,Start repeat
9684,7197198000.00,Address read: A1
9685,7197401000.00,Read
9686,7197436000.00,ACK
9687,7197483000.00,Data read: E0
9688,7197714000.00,ACK
9689,7197755000.00,Data read: D0
9690,7197987000.00,ACK
9691,7198023000.00,Data read: 5F
9692,7198260000.00,NACK
9693,7198299000.00,Stop
9694,7207369000.00,Start
9695,7207390000.00,Address write: A0
9696,7207575000.00,Write
9697,7207611000.00,ACK
9698,7207661000.00,Data write: 05
9699,7207887000.00,ACK
9700,7207937000.00,Start repeat
9701,7207958000.00,Address read: A1
9702,7208143000.00,Read
9703,7208179000.00,ACK
9704,7208230000.00,Data read: E0
9705,7208474000.00,ACK
9706,7208510000.00,Data read: D1
9707,7208747000.00,ACK
9708,7208783000.00,Data read: C7
9709,7209014000.00,NACK
9710,7209054000.00,Stop
9711,7218349000.00,Start
9712,7218369000.00,Address write: A0
9713,7218555000.00,Write
9714,7218590000.00,ACK
9715,7218641000.00,Data write: 05
9716,7218866000.00,ACK
9717,7218916000.00,Start repeat
9718,7218937000.00,Address read: A1
9719,7219123000.00,Read
9720,7219158000.00,ACK
9721,7219210000.00,Data read: E0
9722,7219453000.00,ACK
9723,7219489000.00,Data read: CE
9724,7219726000.00,ACK
9725,7219762000.00,Data read: FB
9726,7219994000.00,NACK
9727,7220033000.00,Stop
9728,7229338000.00,Start
9729,7229358000.00,Address write: A0
9730,7229544000.00,Write
9731,7229579000.00,ACK
9732,7229630000.00,Data write: 05
9733,7229856000.00,ACK
9734,7229906000.00,Start repeat
9735,7229926000.00,Address read: A1
9736,7230112000.00,Read
9737,7230147000.00,ACK
9738,7230199000.00,Data read: E0
9739,7230443000.00,ACK
9740,7230479000.00,Data read: D1
9741,7230716000.00,ACK
9742,7230751000.00,Data read: 51
9743,7230983000.00,NACK
9744,7231022000.00,Stop
9745,7231045000.00,Start
9746,7231065000.00,Address write: A0
9747,7231256000.00,Write
9748,7231292000.00,ACK
9749,7231354000.00,Data write: 01
9750,7231575000.00,ACK
9751,7231625000.00,Data write: 33
9752,7231851000.00,ACK
9753,7231901000.00,Stop
9754,7241320000.00,Start
9755,7241340000.00,Address write: A0
9756,7241526000.00,Write
9757,7241561000.00,ACK
9758,7241612000.00,Data write: 05
9759,7241838000.00,ACK
9760,7241888000.00,Start repeat
9761,7241909000.00,Address read: A1
9762,7242094000.00,Read
9763,7242129000.00,ACK
9764,7242181000.00,Data read: E0
9765,7242425000.00,ACK
9766,7242461000.00,Data read: D1
9767,7242698000.00,ACK
9768,7242734000.00,Data read: 50
9769,7242965000.00,NACK
9770,7243005000.00,Stop
9771,7252302000.00,Start
9772,7252322000.00,Address write: A0
9773,7252508000.00,Write
9774,7252543000.00,ACK
9775,7252594000.00,Data write: 05
9776,7252820000.00,ACK
9777,7252870000.00,Start repeat
9778,7252890000.00,Address read: A1
9779,7253076000.00,Read
9780,7253111000.00,ACK
9781,7253163000.00,Data read: E0
9782,7253407000.00,ACK
9783,7253443000.00,Data read: D1
9784,7253680000.00,ACK
9785,7253716000.00,Data read: 50
9786,7253947000.00,NACK
9787,7253987000.00,Stop
9788,7263291000.00,Start
9789,7263311000.00,Address write: A0
9790,7263497000.00,Write
9791,7263532000.00,ACK
9792,7263583000.00,Data write: 05
9793,7263809000.00,ACK
9794,7263859000.00,Start repeat
9795,7263879000.00,Address read: A1
9796,7264065000.00,Read
9797,7264100000.00,ACK
9798,7264152000.00,Data read: 9F
9799,7264396000.00,ACK
9800,7264432000.00,Data read: 7C
9801,7264669000.00,ACK
9802,7264704000.00,Data read: F5
9803,7264936000.00,NACK
9804,7264976000.00,Stop
9805,7274272000.00,Start
9806,7274293000.00,Address write: A0
9807,7274478000.00,Write
9808,7274514000.00,ACK
9809,7274564000.00,Data write: 05
9810,7274790000.00,ACK
9811,7274840000.00,Start repeat
9812,7274861000.00,Address read: A1
9813,7275046000.00,Read
9814,7275082000.00,ACK
9815,7275133000.00,Data read: 9F
9816,7275377000.00,ACK
9817,7275413000.00,Data read: 7E
9818,7275650000.00,ACK
9819,7275685000.00,Data read: C9
9820,7275917000.00,NACK
9821,7275957000.00,Stop
9822,7285254000.00,Start
9823,7285274000.00,Address write: A0
9824,7285460000.00,Write
9825,7285495000.00,ACK
9826,7285546000.00,Data write: 05
9827,7285772000.00,ACK
9828,7285822000.00,Start repeat
9829,7285842000.00,Address read: A1
9830,7286028000.00,Read
9831,7286063000.00,ACK
9832,7286115000.00,Data read: 9F
9833,7286359000.00,ACK
9834,7286395000.00,Data read: 82
9835,7286631000.00,ACK
9836,7286667000.00,Data read: 81
9837,7286899000.00,NACK
9838,7286938000.00,Stop
9839,7315433000.00,Start
9840,7315454000.00,Address write: A0
9841,7315644000.00,Write
9842,7315680000.00,ACK
9843,7315730000.00,Data write: 05
9844,7315951000.00,ACK
9845,7316001000.00,Start repeat
9846,7316021000.00,Address read: A1
9847,7316224000.00,Read
9848,7316259000.00,ACK
9849,7316306000.00,Data read: 9F
9850,7316538000.00,ACK
9851,7316579000.00,Data read: 84
9852,7316810000.00,ACK
9853,7316846000.00,Data read: C5
9854,7317083000.00,NACK
9855,7317122000.00,Stop
9856,7326192000.00,Start
9857,7326213000.00,Address write: A0
9858,7326398000.00,Write
9859,7326434000.00,ACK
9860,7326484000.00,Data write: 05
9861,7326710000.00,ACK
9862,7326760000.00,Start repeat
9863,7326781000.00,Address read: A1
9864,7326966000.00,Read
9865,7327002000.00,ACK
9866,7327053000.00,Data read: 9F
9867,7327297000.00,ACK
9868,7327333000.00,Data read: 84
9869,7327570000.00,ACK
9870,7327606000.00,Data read: 0F
9871,7327837000.00,NACK
9872,7327877000.00,Stop
9873,7337175000.00,Start
9874,7337195000.00,Address write: A0
9875,7337381000.00,Write
9876,7337416000.00,ACK
9877,7337467000.00,Data write: 05
9878,7337693000.00,ACK
9879,7337743000.00,Start repeat
9880,7337763000.00,Address read: A1
9881,7337949000.00,Read
9882,7337984000.00,ACK
9883,7338036000.00,Data read: 9F
9884,7338280000.00,ACK
9885,7338316000.00,Data read: 7E
9886,7338553000.00,ACK
9887,7338589000.00,Data read: B3
9888,7338820000.00,NACK
9889,7338860000.00,Stop
9890,7348165000.00,Start
9891,7348185000.00,Address write: A0
9892,7348371000.00,Write
9893,7348406000.00,ACK
9894,7348457000.00,Data write: 05
9895,7348683000.00,ACK
9896,7348733000.00,Start repeat
9897,7348754000.00,Address read: A1
9898,7348939000.00,Read
9899,7348975000.00,ACK
9900,7349026000.00,Data read: 9F
9901,7349270000.00,ACK
9902,7349306000.00,Data read: 80
9903,7349543000.00,ACK
9904,7349579000.00,Data read: 2B
9905,7349811000.00,NACK
9906,7349850000.00,Stop
9907,7359149000.00,Start
9908,7359170000.00,Address write: A0
9909,7359355000.00,Write
9910,7359391000.00,ACK
9911,7359441000.00,Data write: 05
9912,7359667000.00,ACK
9913,7359717000.00,Start repeat
9914,7359738000.00,Address read: A1
9915,7359924000.00,Read
9916,7359959000.00,ACK
9917,7360011000.00,Data read: 9F
9918,7360255000.00,ACK
9919,7360291000.00,Data read: 7C
9920,7360528000.00,ACK
9921,7360563000.00,Data read: C1
9922,7360795000.00,NACK
9923,7360835000.00,Stop
9924,7370132000.00,Start
9925,7370153000.00,Address write: A0
9926,7370339000.00,Write
9927,7370374000.00,ACK
9928,7370425000.00,Data write: 05
9929,7370651000.00,ACK
9930,7370701000.00,Start repeat
9931,7370721000.00,Address read: A1
9932,7370907000.00,Read
9933,7370942000.00,ACK
9934,7370994000.00,Data read: 9F
9935,7371238000.00,ACK
9936,7371274000.00,Data read: 85
9937,7371511000.00,ACK
9938,7371546000.00,Data read: 19
9939,7371778000.00,NACK
9940,7371818000.00,Stop
9941,7381124000.00,Start
9942,7381144000.00,Address write: A0
9943,7381330000.00,Write
9944,7381366000.00,ACK
9945,7381416000.00,Data write: 05
9946,7381642000.00,ACK
9947,7381692000.00,Start repeat
9948,7381713000.00,Address read: A1
9949,7381898000.00,Read
9950,7381934000.00,ACK
9951,7381985000.00,Data read: 9F
9952,7382229000.00,ACK
9953,7382265000.00,Data read: 7C
9954,7382502000.00,ACK
9955,7382538000.00,Data read: 53
9956,7382770000.00,NACK
9957,7382809000.00,Stop
9958,7382831000.00,Start
9959,7382852000.00,Address write: A0
9960,7383043000.00,Write
9961,7383079000.00,ACK
9962,7383141000.00,Data write: 01
9963,7383362000.00,ACK
9964,7383412000.00,Data write: 31
9965,7383638000.00,ACK
9966,7383688000.00,Stop
9967,7393106000.00,Start
9968,7393127000.00,Address write: A0
9969,7393312000.00,Write
9970,7393348000.00,ACK
9971,7393398000.00,Data write: 05
9972,7393624000.00,ACK
9973,7393674000.00,Start repeat
9974,7393695000.00,Address read: A1
9975,7393880000.00,Read
9976,7393916000.00,ACK
9977,7393967000.00,Data read: 9F
9978,7394211000.00,ACK
9979,7394247000.00,Data read: 7C
9980,7394484000.00,ACK
9981,7394520000.00,Data read: 52
9982,7394752000.00,NACK
9983,7394791000.00,Stop
9984,7404093000.00,Start
9985,7404114000.00,Address write: A0
9986,7404299000.00,Write
9987,7404334000.00,ACK
9988,7404385000.00,Data write: 05
9989,7404611000.00,ACK
9990,7404661000.00,Start repeat
9991,7404681000.00,Address read: A1
9992,7404867000.00,Read
9993,7404902000.00,ACK
9994,7404954000.00,Data read: 9F
9995,7405198000.00,ACK
9996,7405234000.00,Data read: 7C
9997,7405470000.00,ACK
9998,7405506000.00,Data read: 52
9999,7405738000.00,NACK
10000,7405777000.00,Stop
10001,7415074000.00,Start
10002,7415095000.00,Address write: A0
10003,7415281000.00,Write
10004,7415316000.00,ACK
10005,7415366000.00,Data write: 05
10006,7415592000.00,ACK
10007,7415642000.00,Start repeat
10008,7415663000.00,Address read: A1
10009,7415848000.00,Read
10010,7415884000.00,ACK
10011,7415935000.00,Data read: 8A
10012,7416179000.00,ACK
10013,7416215000.00,Data read: C7
10014,7416452000.00,ACK
10015,7416488000.00,Data read: E7
10016,7416719000.00,NACK
10017,7416759000.00,Stop
10018,7435982000.00,Start
10019,7436004000.00,Address write: A0
10020,7436201000.00,Write
10021,7436236000.00,ACK
10022,7436287000.00,Data write: 05
10023,7436513000.00,ACK
10024,7436563000.00,Start repeat
10025,7436583000.00,Address read: A1
10026,7436769000.00,Read
10027,7436804000.00,ACK
10028,7436851000.00,Data read: 8A
10029,7437100000.00,ACK
10030,7437136000.00,Data read: BA
10031,7437367000.00,ACK
10032,7437408000.00,Data read: F5
10033,7437640000.00,NACK
10034,7437680000.00,Stop
10035,7447030000.00,Start
10036,7447050000.00,Address write: A0
10037,7447236000.00,Write
10038,7447271000.00,ACK
10039,7447322000.00,Data write: 05
10040,7447548000.00,ACK
10041,7447598000.00,Start repeat
10042,7447618000.00,Address read: A1
10043,7447804000.00,Read
10044,7447839000.00,ACK
10045,7447891000.00,Data read: 8A
10046,7448135000.00,ACK
10047,7448171000.00,Data read: B8
10048,7448408000.00,ACK
10049,7448444000.00,Data read: F5
10050,7448675000.00,NACK
10051,7448715000.00,Stop
10052,7458013000.00,Start
10053,7458034000.00,Address write: A0
10054,7458219000.00,Write
10055,7458255000.00,ACK
10056,7458305000.00,Data write: 05
10057,7458531000.00,ACK
10058,7458581000.00,Start repeat
10059,7458602000.00,Address read: A1
10060,7458788000.00,Read
10061,7458823000.00,ACK
10062,7458875000.00,Data read: 8A
10063,7459119000.00,ACK
10064,7459155000.00,Data read: BA
10065,7459391000.00,ACK
10066,7459427000.00,Data read: 39
10067,7459659000.00,NACK
10068,7459698000.00,Stop
10069,7468995000.00,Start
10070,7469016000.00,Address write: A0
10071,7469202000.00,Write
10072,7469237000.00,ACK
10073,7469287000.00,Data write: 05
10074,7469513000.00,ACK
10075,7469563000.00,Start repeat
10076,7469584000.00,Address read: A1
10077,7469770000.00,Read
10078,7469805000.00,ACK
10079,7469857000.00,Data read: 8A
10080,7470101000.00,ACK
10081,7470136000.00,Data read: B5
10082,7470373000.00,ACK
10083,7470409000.00,Data read: 5D
10084,7470641000.00,NACK
10085,7470680000.00,Stop
10086,7479986000.00,Start
10087,7480007000.00,Address write: A0
10088,7480192000.00,Write
10089,7480228000.00,ACK
10090,7480278000.00,Data write: 05
10091,7480504000.00,ACK
10092,7480554000.00,Start repeat
10093,7480575000.00,Address read: A1
10094,7480760000.00,Read
10095,7480796000.00,ACK
10096,7480847000.00,Data read: 8A
10097,7481091000.00,ACK
10098,7481127000.00,Data read: B6
10099,7481364000.00,ACK
10100,7481400000.00,Data read: D5
10101,7481632000.00,NACK
10102,7481671000.00,Stop
10103,7490969000.00,Start
10104,7490990000.00,Address write: A0
10105,7491175000.00,Write
10106,7491211000.00,ACK
10107,7491261000.00,Data write: 05
10108,7491488000.00,ACK
10109,7491537000.00,Start repeat
10110,7491558000.00,Address read: A1
10111,7491744000.00,Read
10112,7491779000.00,ACK
10113,7491831000.00,Data read: 8A
10114,7492075000.00,ACK
10115,7492111000.00,Data read: B5
10116,7492348000.00,ACK
10117,7492383000.00,Data read: 77
10118,7492615000.00,NACK
10119,7492655000.00,Stop
10120,7501952000.00,Start
10121,7501972000.00,Address write: A0
10122,7502158000.00,Write
10123,7502193000.00,ACK
10124,7502244000.00,Data write: 05
10125,7502469000.00,ACK
10126,7502519000.00,Start repeat
10127,7502540000.00,Address read: A1
10128,7502726000.00,Read
10129,7502761000.00,ACK
10130,7502813000.00,Data read: 8A
10131,7503056000.00,ACK
10132,7503092000.00,Data read: B4
10133,7503329000.00,ACK
10134,7503365000.00,Data read: DF
10135,7503597000.00,NACK
10136,7503636000.00,Stop
10137,7512935000.00,Start
10138,7512956000.00,Address write: A0
10139,7513141000.00,Write
10140,7513177000.00,ACK
10141,7513227000.00,Data write: 05
10142,7513453000.00,ACK
10143,7513503000.00,Start repeat
10144,7513524000.00,Address read: A1
10145,7513710000.00,Read
10146,7513745000.00,ACK
10147,7513797000.00,Data read: 8A
10148,7514041000.00,ACK
10149,7514077000.00,Data read: B3
10150,7514313000.00,ACK
10151,7514349000.00,Data read: 7F
10152,7514581000.00,NACK
10153,7514620000.00,Stop
10154,7523926000.00,Start
10155,7523946000.00,Address write: A0
10156,7524132000.00,Write
10157,7524168000.00,ACK
10158,7524218000.00,Data write: 05
10159,7524444000.00,ACK
10160,7524494000.00,Start repeat
10161,7524515000.00,Address read: A1
10162,7524700000.00,Read
10163,7524736000.00,ACK
10164,7524787000.00,Data read: 8A
10165,7525031000.00,ACK
10166,7525067000.00,Data read: B1
10167,7525304000.00,ACK
10168,7525340000.00,Data read: 49
10169,7525572000.00,NACK
10170,7525611000.00,Stop
10171,7525633000.00,Start
10172,7525654000.00,Address write: A0
10173,7525845000.00,Write
10174,7525881000.00,ACK
10175,7525943000.00,Data write: 01
10176,7526163000.00,ACK
10177,7526214000.00,Data write: 32
10178,7526440000.00,ACK
10179,7526490000.00,Stop
10180,7554106000.00,Start
10181,7554127000.00,Address write: A0
10182,7554317000.00,Write
10183,7554353000.00,ACK
10184,7554403000.00,Data write: 05
10185,7554624000.00,ACK
10186,7554674000.00,Start repeat
10187,7554695000.00,Address read: A1
10188,7554897000.00,Read
10189,7554933000.00,ACK
10190,7554980000.00,Data read: E0
10191,7555211000.00,ACK
10192,7555252000.00,Data read: D2
10193,7555484000.00,ACK
10194,7555520000.00,Data read: 41
10195,7555757000.00,NACK
10196,7555796000.00,Stop
10197,7564870000.00,Start
10198,7564890000.00,Address write: A0
10199,7565076000.00,Write
10200,7565111000.00,ACK
10201,7565162000.00,Data write: 05
10202,7565388000.00,ACK
10203,7565438000.00,Start repeat
10204,7565458000.00,Address read: A1
10205,7565644000.00,Read
10206,7565679000.00,ACK
10207,7565731000.00,Data read: E0
10208,7565975000.00,ACK
10209,7566011000.00,Data read: D0
10210,7566248000.00,ACK
10211,7566284000.00,Data read: 0B
10212,7566515000.00,NACK
10213,7566555000.00,Stop
10214,7575860000.00,Start
10215,7575881000.00,Address write: A0
10216,7576066000.00,Write
10217,7576102000.00,ACK
10218,7576152000.00,Data write: 05
10219,7576378000.00,ACK
10220,7576428000.00,Start repeat
10221,7576449000.00,Address read: A1
10222,7576634000.00,Read
10223,7576670000.00,ACK
10224,7576721000.00,Data read: E0
10225,7576965000.00,ACK
10226,7577001000.00,Data read: CF
10227,7577238000.00,ACK
10228,7577274000.00,Data read: E7
10229,7577506000.00,NACK
10230,7577545000.00,Stop
10231,7586843000.00,Start
10232,7586864000.00,Address write: A0
10233,7587050000.00,Write
10234,7587085000.00,ACK
10235,7587136000.00,Data write: 05
10236,7587362000.00,ACK
10237,7587412000.00,Start repeat
10238,7587432000.00,Address read: A1
10239,7587618000.00,Read
10240,7587653000.00,ACK
10241,7587705000.00,Data read: E0
10242,7587949000.00,ACK
10243,7587985000.00,Data read: CE
10244,7588222000.00,ACK
10245,7588258000.00,Data read: 99
10246,7588489000.00,NACK
10247,7588529000.00,Stop
10248,7597828000.00,Start
10249,7597849000.00,Address write: A0
10250,7598034000.00,Write
10251,7598070000.00,ACK
10252,7598120000.00,Data write: 05
10253,7598346000.00,ACK
10254,7598396000.00,Start repeat
10255,7598417000.00,Address read: A1
10256,7598603000.00,Read
10257,7598638000.00,ACK
10258,7598690000.00,Data read: E0
10259,7598934000.00,ACK
10260,7598969000.00,Data read: CD
10261,7599206000.00,ACK
10262,7599242000.00,Data read: 0F
10263,7599474000.00,NACK
10264,7599513000.00,Stop
10265,7608821000.00,Start
10266,7608841000.00,Address write: A0
10267,7609027000.00,Write
10268,7609062000.00,ACK
10269,7609113000.00,Data write: 05
10270,7609339000.00,ACK
10271,7609389000.00,Start repeat
10272,7609410000.00,Address read: A1
10273,7609595000.00,Read
10274,7609631000.00,ACK
10275,7609682000.00,Data read: E0
10276,7609926000.00,ACK
10277,7609962000.00,Data read: D1
10278,7610199000.00,ACK
10279,7610235000.00,Data read: 2F
10280,7610467000.00,NACK
10281,7610506000.00,Stop
10282,7619807000.00,Start
10283,7619827000.00,Address write: A0
10284,7620013000.00,Write
10285,7620048000.00,ACK
10286,7620099000.00,Data write: 05
10287,7620325000.00,ACK
10288,7620375000.00,Start repeat
10289,7620395000.00,Address read: A1
10290,7620581000.00,Read
10291,7620616000.00,ACK
10292,7620668000.00,Data read: E0
10293,7620912000.00,ACK
10294,7620947000.00,Data read: D1
10295,7621184000.00,ACK
10296,7621220000.00,Data read: D3
10297,7621452000.00,NACK
10298,7621491000.00,Stop
10299,7630786000.00,Start
10300,7630807000.00,Address write: A0
10301,7630993000.00,Write
10302,7631028000.00,ACK
10303,7631079000.00,Data write: 05
10304,7631305000.00,ACK
10305,7631355000.00,Start repeat
10306,7631375000.00,Address read: A1
10307,7631561000.00,Read
10308,7631596000.00,ACK
10309,7631648000.00,Data read: E0
10310,7631892000.00,ACK
10311,7631928000.00,Data read: D3
10312,7632164000.00,ACK
10313,7632200000.00,Data read: E7
10314,7632432000.00,NACK
10315,7632472000.00,Stop
10316,7641777000.00,Start
10317,7641798000.00,Address write: A0
10318,7641984000.00,Write
10319,7642019000.00,ACK
10320,7642069000.00,Data write: 05
10321,7642296000.00,ACK
10322,7642345000.00,Start repeat
10323,7642366000.00,Address read: A1
10324,7642552000.00,Read
10325,7642587000.00,ACK
10326,7642639000.00,Data read: E0
10327,7642883000.00,ACK
10328,7642919000.00,Data read: D1
10329,7643155000.00,ACK
10330,7643191000.00,Data read: C1
10331,7643423000.00,NACK
10332,7643462000.00,Stop
10333,7652763000.00,Start
10334,7652784000.00,Address write: A0
10335,7652970000.00,Write
10336,7653005000.00,ACK
10337,7653056000.00,Data write: 05
10338,7653282000.00,ACK
10339,7653332000.00,Start repeat
10340,7653352000.00,Address read: A1
10341,7653538000.00,Read
10342,7653573000.00,ACK
10343,7653625000.00,Data read: E0
10344,7653869000.00,ACK
10345,7653905000.00,Data read: D2
10346,7654141000.00,ACK
10347,7654177000.00,Data read: C7
10348,7654409000.00,NACK
10349,7654449000.00,Stop
10350,7654471000.00,Start
10351,7654491000.00,Address write: A0
10352,7654682000.00,Write
10353,7654719000.00,ACK
10354,7654780000.00,Data write: 01
10355,7655001000.00,ACK
10356,7655051000.00,Data write: 33
10357,7655277000.00,ACK
10358,7655328000.00,Stop
10359,7674767000.00,Start
10360,7674787000.00,Address write: A0
10361,7674973000.00,Write
10362,7675008000.00,ACK
10363,7675059000.00,Data write: 05
10364,7675285000.00,ACK
10365,7675335000.00,Start repeat
10366,7675355000.00,Address read: A1
10367,7675541000.00,Read
10368,7675581000.00,ACK
10369,7675628000.00,Data read: E0
10370,7675871000.00,ACK
10371,7675907000.00,Data read: D2
10372,7676144000.00,ACK
10373,7676180000.00,Data read: C6
10374,7676412000.00,NACK
10375,7676451000.00,Stop
10376,7685714000.00,Start
10377,7685735000.00,Address write: A0
10378,7685920000.00,Write
10379,7685956000.00,ACK
10380,7686006000.00,Data write: 05
10381,7686232000.00,ACK
10382,7686282000.00,Start repeat
10383,7686303000.00,Address read: A1
10384,7686488000.00,Read
10385,7686524000.00,ACK
10386,7686575000.00,Data read: 9F
10387,7686819000.00,ACK
10388,7686855000.00,Data read: 7E
10389,7687091000.00,ACK
10390,7687127000.00,Data read: D7
10391,7687359000.00,NACK
10392,7687398000.00,Stop
10393,7696700000.00,Start
10394,7696721000.00,Address write: A0
10395,7696906000.00,Write
10396,7696942000.00,ACK
10397,7696992000.00,Data write: 05
10398,7697218000.00,ACK
10399,7697268000.00,Start repeat
10400,7697289000.00,Address read: A1
10401,7697474000.00,Read
10402,7697510000.00,ACK
10403,7697561000.00,Data read: 9F
10404,7697805000.00,ACK
10405,7697841000.00,Data read: 83
10406,7698078000.00,ACK
10407,7698114000.00,Data read: 11
10408,7698345000.00,NACK
10409,7698385000.00,Stop
10410,7707684000.00,Start
10411,7707705000.00,Address write: A0
10412,7707890000.00,Write
10413,7707926000.00,ACK
10414,7707976000.00,Data write: 05
10415,7708202000.00,ACK
10416,7708252000.00,Start repeat
10417,7708273000.00,Address read: A1
10418,7708459000.00,Read
10419,7708494000.00,ACK
10420,7708546000.00,Data read: 9F
10421,7708790000.00,ACK
10422,7708826000.00,Data read: 83
10423,7709062000.00,ACK
10424,7709098000.00,Data read: D3
10425,7709330000.00,NACK
10426,7709370000.00,Stop
10427,7718668000.00,Start
10428,7718689000.00,Address write: A0
10429,7718874000.00,Write
10430,7718910000.00,ACK
10431,7718960000.00,Data write: 05
10432,7719186000.00,ACK
10433,7719236000.00,Start repeat
10434,7719257000.00,Address read: A1
10435,7719442000.00,Read
10436,7719478000.00,ACK
10437,7719530000.00,Data read: 9F
10438,7719773000.00,ACK
10439,7719809000.00,Data read: 7B
10440,7720046000.00,ACK
10441,7720082000.00,Data read: 8F
10442,7720314000.00,NACK
10443,7720353000.00,Stop
10444,7729659000.00,Start
10445,7729679000.00,Address write: A0
10446,7729865000.00,Write
10447,7729900000.00,ACK
10448,7729951000.00,Data write: 05
10449,7730177000.00,ACK
10450,7730227000.00,Start repeat
10451,7730247000.00,Address read: A1
10452,7730433000.00,Read
10453,7730468000.00,ACK
10454,7730520000.00,Data read: 9F
10455,7730764000.00,ACK
10456,7730800000.00,Data read: 80
10457,7731037000.00,ACK
10458,7731073000.00,Data read: E3
10459,7731304000.00,NACK
10460,7731344000.00,Stop
10461,7740638000.00,Start
10462,7740659000.00,Address write: A0
10463,7740844000.00,Write
10464,7740880000.00,ACK
10465,7740930000.00,Data write: 05
10466,7741156000.00,ACK
10467,7741206000.00,Start repeat
10468,7741227000.00,Address read: A1
10469,7741412000.00,Read
10470,7741448000.00,ACK
10471,7741499000.00,Data read: 9F
10472,7741743000.00,ACK
10473,7741779000.00,Data read: 7C
10474,7742016000.00,ACK
10475,7742052000.00,Data read: BD
10476,7742283000.00,NACK
10477,7742323000.00,Stop
10478,7751621000.00,Start
10479,7751642000.00,Address write: A0
10480,7751827000.00,Write
10481,7751863000.00,ACK
10482,7751913000.00,Data write: 05
10483,7752139000.00,ACK
10484,7752189000.00,Start repeat
10485,7752210000.00,Address read: A1
10486,7752395000.00,Read
10487,7752431000.00,ACK
10488,7752482000.00,Data read: 9F
10489,7752726000.00,ACK
10490,7752762000.00,Data read: 82
10491,7752999000.00,ACK
10492,7753035000.00,Data read: BF
10493,7753267000.00,NACK
10494,7753306000.00,Stop
10495,7762611000.00,Start
10496,7762632000.00,Address write: A0
10497,7762817000.00,Write
10498,7762853000.00,ACK
10499,7762903000.00,Data write: 05
10500,7763129000.00,ACK
10501,7763179000.00,Start repeat
10502,7763199000.00,Address read: A1
10503,7763385000.00,Read
10504,7763420000.00,ACK
10505,7763472000.00,Data read: 9F
10506,7763716000.00,ACK
10507,7763751000.00,Data read: 7A
10508,7763988000.00,ACK
10509,7764024000.00,Data read: 6B
10510,7764256000.00,NACK
10511,7764295000.00,Stop
10512,7773589000.00,Start
10513,7773609000.00,Address write: A0
10514,7773795000.00,Write
10515,7773830000.00,ACK
10516,7773880000.00,Data write: 05
10517,7774106000.00,ACK
10518,7774156000.00,Start repeat
10519,7774177000.00,Address read: A1
10520,7774362000.00,Read
10521,7774398000.00,ACK
10522,7774449000.00,Data read: 9F
10523,7774693000.00,ACK
10524,7774729000.00,Data read: 7B
10525,7774966000.00,ACK
10526,7775002000.00,Data read: D1
10527,7775233000.00,NACK
10528,7775273000.00,Stop
10529,7794492000.00,Start
10530,7794514000.00,Address write: A0
10531,7794711000.00,Write
10532,7794746000.00,ACK
10533,7794796000.00,Data write: 05
10534,7795023000.00,ACK
10535,7795072000.00,Start repeat
10536,7795093000.00,Address read: A1
10537,7795279000.00,Read
10538,7795314000.00,ACK
10539,7795361000.00,Data read: 9F
10540,7795610000.00,ACK
10541,7795646000.00,Data read: 80
10542,7795877000.00,ACK
10543,7795918000.00,Data read: 09
10544,7796150000.00,NACK
10545,7796190000.00,Stop
10546,7796212000.00,Start
10547,7796232000.00,Address write: A0
10548,7796423000.00,Write
10549,7796458000.00,ACK
10550,7796510000.00,Data write: 01
10551,7796742000.00,ACK
10552,7796793000.00,Data write: 31
10553,7797019000.00,ACK
10554,7797069000.00,Stop
10555,7806542000.00,Start
10556,7806562000.00,Address write: A0
10557,7806748000.00,Write
10558,7806783000.00,ACK
10559,7806834000.00,Data write: 05
10560,7807060000.00,ACK
10561,7807110000.00,Start repeat
10562,7807130000.00,Address read: A1
10563,7807316000.00,Read
10564,7807351000.00,ACK
10565,7807403000.00,Data read: 9F
10566,7807647000.00,ACK
10567,7807683000.00,Data read: 80
10568,7807920000.00,ACK
10569,7807955000.00,Data read: 08
10570,7808187000.00,NACK
10571,7808227000.00,Stop
10572,7817525000.00,Start
10573,7817545000.00,Address write: A0
10574,7817731000.00,Write
10575,7817766000.00,ACK
10576,7817817000.00,Data write: 05
10577,7818043000.00,ACK
10578,7818093000.00,Start repeat
10579,7818113000.00,Address read: A1
10580,7818299000.00,Read
10581,7818334000.00,ACK
10582,7818386000.00,Data read: 9F
10583,7818630000.00,ACK
10584,7818666000.00,Data read: 80
10585,7818903000.00,ACK
10586,7818939000.00,Data read: 08
10587,7819171000.00,NACK
10588,7819210000.00,Stop
10589,7828515000.00,Start
10590,7828536000.00,Address write: A0
10591,7828721000.00,Write
10592,7828757000.00,ACK
10593,7828807000.00,Data write: 05
10594,7829034000.00,ACK
10595,7829083000.00,Start repeat
10596,7829104000.00,Address read: A1
10597,7829290000.00,Read
10598,7829325000.00,ACK
10599,7829377000.00,Data read: 8A
10600,7829621000.00,ACK
10601,7829657000.00,Data read: C5
10602,7829893000.00,ACK
10603,7829929000.00,Data read: 71
10604,7830161000.00,NACK
10605,7830200000.00,Stop
10606,7839499000.00,Start
10607,7839520000.00,Address write: A0
10608,7839706000.00,Write
10609,7839741000.00,ACK
10610,7839791000.00,Data write: 05
10611,7840017000.00,ACK
10612,7840067000.00,Start repeat
10613,7840088000.00,Address read: A1
10614,7840274000.00,Read
10615,7840309000.00,ACK
10616,7840361000.00,Data read: 8A
10617,7840605000.00,ACK
10618,7840640000.00,Data read: BC
10619,7840877000.00,ACK
10620,7840913000.00,Data read: 59
10621,7841145000.00,NACK
10622,7841184000.00,Stop
10623,7850481000.00,Start
10624,7850502000.00,Address write: A0
10625,7850687000.00,Write
10626,7850723000.00,ACK
10627,7850773000.00,Data write: 05
10628,7850999000.00,ACK
10629,7851049000.00,Start repeat
10630,7851070000.00,Address read: A1
10631,7851255000.00,Read
10632,7851291000.00,ACK
10633,7851343000.00,Data read: 8A
10634,7851586000.00,ACK
10635,7851622000.00,Data read: B8
10636,7851859000.00,ACK
10637,7851895000.00,Data read: 3D
10638,7852127000.00,NACK
10639,7852166000.00,Stop
10640,7861468000.00,Start
10641,7861488000.00,Address write: A0
10642,7861674000.00,Write
10643,7861709000.00,ACK
10644,7861760000.00,Data write: 05
10645,7861986000.00,ACK
10646,7862036000.00,Start repeat
10647,7862056000.00,Address read: A1
10648,7862242000.00,Read
10649,7862277000.00,ACK
10650,7862329000.00,Data read: 8A
10651,7862573000.00,ACK
10652,7862608000.00,Data read: B8
10653,7862845000.00,ACK
10654,7862881000.00,Data read: D1
10655,7863113000.00,NACK
10656,7863152000.00,Stop
10657,7872448000.00,Start
10658,7872468000.00,Address write: A0
10659,7872654000.00,Write
10660,7872689000.00,ACK
10661,7872740000.00,Data write: 05
10662,7872966000.00,ACK
10663,7873016000.00,Start repeat
10664,7873036000.00,Address read: A1
10665,7873222000.00,Read
10666,7873257000.00,ACK
10667,7873309000.00,Data read: 8A
10668,7873553000.00,ACK
10669,7873589000.00,Data read: B5
10670,7873826000.00,ACK
10671,7873862000.00,Data read: 3B
10672,7874093000.00,NACK
10673,7874133000.00,Stop
10674,7883432000.00,Start
10675,7883453000.00,Address write: A0
10676,7883638000.00,Write
10677,7883674000.00,ACK
10678,7883724000.00,Data write: 05
10679,7883950000.00,ACK
10680,7884000000.00,Start repeat
10681,7884021000.00,Address read: A1
10682,7884206000.00,Read
10683,7884242000.00,ACK
10684,7884293000.00,Data read: 8A
10685,7884537000.00,ACK
10686,7884573000.00,Data read: B6
10687,7884809000.00,ACK
10688,7884845000.00,Data read: 07
10689,7885077000.00,NACK
10690,7885116000.00,Stop
10691,7912609000.00,Start
10692,7912629000.00,Address write: A0
10693,7912820000.00,Write
10694,7912855000.00,ACK
10695,7912906000.00,Data write: 05
10696,7913127000.00,ACK
10697,7913176000.00,Start repeat
10698,7913197000.00,Address read: A1
10699,7913400000.00,Read
10700,7913435000.00,ACK
10701,7913482000.00,Data read: 8A
10702,7913713000.00,ACK
10703,7913754000.00,Data read: B4
10704,7913986000.00,ACK
10705,7914022000.00,Data read: 59
10706,7914259000.00,NACK
10707,7914298000.00,Stop
10708,7923377000.00,Start
10709,7923398000.00,Address write: A0
10710,7923583000.00,Write
10711,7923619000.00,ACK
10712,7923669000.00,Data write: 05
10713,7923895000.00,ACK
10714,7923945000.00,Start repeat
10715,7923966000.00,Address read: A1
10716,7924151000.00,Read
10717,7924187000.00,ACK
10718,7924238000.00,Data read: 8A
10719,7924482000.00,ACK
10720,7924518000.00,Data read: B2
10721,7924755000.00,ACK
10722,7924790000.00,Data read: B3
10723,7925022000.00,NACK
10724,7925062000.00,Stop
10725,7934359000.00,Start
10726,7934380000.00,Address write: A0
10727,7934565000.00,Write
10728,7934601000.00,ACK
10729,7934651000.00,Data write: 05
10730,7934877000.00,ACK
10731,7934927000.00,Start repeat
10732,7934948000.00,Address read: A1
10733,7935133000.00,Read
10734,7935169000.00,ACK
10735,7935220000.00,Data read: 8A
10736,7935464000.00,ACK
10737,7935500000.00,Data read: B2
10738,7935737000.00,ACK
10739,7935773000.00,Data read: A5
10740,7936005000.00,NACK
10741,7936044000.00,Stop
10742,7945350000.00,Start
10743,7945370000.00,Address write: A0
10744,7945556000.00,Write
10745,7945592000.00,ACK
10746,7945642000.00,Data write: 05
10747,7945868000.00,ACK
10748,7945918000.00,Start repeat
10749,7945939000.00,Address read: A1
10750,7946124000.00,Read
10751,7946160000.00,ACK
10752,7946212000.00,Data read: 8A
10753,7946455000.00,ACK
10754,7946491000.00,Data read: B2
10755,7946728000.00,ACK
10756,7946764000.00,Data read: C3
10757,7946996000.00,NACK
10758,7947035000.00,Stop
10759,7947058000.00,Start
10760,7947078000.00,Address write: A0
10761,7947269000.00,Write
10762,7947305000.00,ACK
10763,7947367000.00,Data write: 01
10764,7947588000.00,ACK
10765,7947638000.00,Data write: 32
10766,7947864000.00,ACK
10767,7947915000.00,Stop
10768,7958330000.00,Start
10769,7958350000.00,Address write: A0
10770,7958536000.00,Write
10771,7958571000.00,ACK
10772,7958622000.00,Data write: 05
10773,7958848000.00,ACK
10774,7958898000.00,Start repeat
10775,7958919000.00,Address read: A1
10776,7959104000.00,Read
10777,7959140000.00,ACK
10778,7959191000.00,Data read: 8A
10779,7959435000.00,ACK
10780,7959471000.00,Data read: B2
10781,7959708000.00,ACK
10782,7959744000.00,Data read: C2
10783,7959976000.00,NACK
10784,7960015000.00,Stop
10785,7969319000.00,Start
10786,7969339000.00,Address write: A0
10787,7969525000.00,Write
10788,7969560000.00,ACK
10789,7969611000.00,Data write: 05
10790,7969837000.00,ACK
10791,7969887000.00,Start repeat
10792,7969907000.00,Address read: A1
10793,7970093000.00,Read
10794,7970129000.00,ACK
10795,7970180000.00,Data read: 8A
10796,7970424000.00,ACK
10797,7970460000.00,Data read: B2
10798,7970697000.00,ACK
10799,7970733000.00,Data read: C2
10800,7970964000.00,NACK
10801,7971004000.00,Stop
10802,7980302000.00,Start
10803,7980323000.00,Address write: A0
10804,7980508000.00,Write
10805,7980544000.00,ACK
10806,7980594000.00,Data write: 05
10807,7980821000.00,ACK
10808,7980870000.00,Start repeat
10809,7980891000.00,Address read: A1
10810,7981077000.00,Read
10811,7981112000.00,ACK
10812,7981164000.00,Data read: E0
10813,7981408000.00,ACK
10814,7981444000.00,Data read: D2
10815,7981681000.00,ACK
10816,7981716000.00,Data read: 85
10817,7981948000.00,NACK
10818,7981988000.00,Stop
10819,7991290000.00,Start
10820,7991311000.00,Address write: A0
10821,7991496000.00,Write
10822,7991532000.00,ACK
10823,7991582000.00,Data write: 05
10824,7991808000.00,ACK
10825,7991858000.00,Start repeat
10826,7991879000.00,Address read: A1
10827,7992064000.00,Read
10828,7992099000.00,ACK
10829,7992151000.00,Data read: E0
10830,7992395000.00,ACK
10831,7992431000.00,Data read: D4
10832,7992668000.00,ACK
10833,7992703000.00,Data read: D5
10834,7992935000.00,NACK
10835,7992975000.00,Stop
10836,8002273000.00,Start
10837,8002294000.00,Address write: A0
10838,8002479000.00,Write
10839,8002515000.00,ACK
10840,8002565000.00,Data write: 05
10841,8002791000.00,ACK
10842,8002841000.00,Start repeat
10843,8002862000.00,Address read: A1
10844,8003047000.00,Read
10845,8003083000.00,ACK
10846,8003134000.00,Data read: E0
10847,8003378000.00,ACK
10848,8003414000.00,Data read: D2
10849,8003651000.00,ACK
10850,8003687000.00,Data read: AB
10851,8003918000.00,NACK
10852,8003958000.00,Stop
10853,8031458000.00,Start
10854,8031479000.00,Address write: A0
10855,8031669000.00,Write
10856,8031705000.00,ACK
10857,8031755000.00,Data write: 05
10858,8031976000.00,ACK
10859,8032026000.00,Start repeat
10860,8032047000.00,Address read: A1
10861,8032250000.00,Read
10862,8032285000.00,ACK
10863,8032332000.00,Data read: E0
10864,8032564000.00,ACK
10865,8032604000.00,Data read: D2
10866,8032836000.00,ACK
10867,8032872000.00,Data read: 75
10868,8033109000.00,NACK
10869,8033149000.00,Stop
10870,8042221000.00,Start
10871,8042242000.00,Address write: A0
10872,8042428000.00,Write
10873,8042463000.00,ACK
10874,8042513000.00,Data write: 05
10875,8042740000.00,ACK
10876,8042790000.00,Start repeat
10877,8042810000.00,Address read: A1
10878,8042996000.00,Read
10879,8043031000.00,ACK
10880,8043083000.00,Data read: E0
10881,8043327000.00,ACK
10882,8043363000.00,Data read: D0
10883,8043600000.00,ACK
10884,8043635000.00,Data read: 13
10885,8043867000.00,NACK
10886,8043907000.00,Stop
10887,8053204000.00,Start
10888,8053224000.00,Address write: A0
10889,8053410000.00,Write
10890,8053445000.00,ACK
10891,8053496000.00,Data write: 05
10892,8053722000.00,ACK
10893,8053772000.00,Start repeat
10894,8053793000.00,Address read: A1
10895,8053978000.00,Read
10896,8054014000.00,ACK
10897,8054065000.00,Data read: E0
10898,8054309000.00,ACK
10899,8054345000.00,Data read: D1
10900,8054582000.00,ACK
10901,8054618000.00,Data read: AB
10902,8054850000.00,NACK
10903,8054889000.00,Stop
10904,8064190000.00,Start
10905,8064210000.00,Address write: A0
10906,8064396000.00,Write
10907,8064431000.00,ACK
10908,8064482000.00,Data write: 05
10909,8064708000.00,ACK
10910,8064758000.00,Start repeat
10911,8064779000.00,Address read: A1
10912,8064964000.00,Read
10913,8065000000.00,ACK
10914,8065051000.00,Data read: E0
10915,8065295000.00,ACK
10916,8065331000.00,Data read: CF
10917,8065568000.00,ACK
10918,8065604000.00,Data read: B3
10919,8065836000.00,NACK
10920,8065875000.00,Stop
10921,8075179000.00,Start
10922,8075200000.00,Address write: A0
10923,8075385000.00,Write
10924,8075420000.00,ACK
10925,8075471000.00,Data write: 05
10926,8075697000.00,ACK
10927,8075747000.00,Start repeat
10928,8075767000.00,Address read: A1
10929,8075953000.00,Read
10930,8075988000.00,ACK
10931,8076040000.00,Data read: E0
10932,8076284000.00,ACK
10933,8076320000.00,Data read: CF
10934,8076557000.00,ACK
10935,8076592000.00,Data read: 95
10936,8076824000.00,NACK
10937,8076863000.00,Stop
10938,8086164000.00,Start
10939,8086184000.00,Address write: A0
10940,8086370000.00,Write
10941,8086406000.00,ACK
10942,8086456000.00,Data write: 05
10943,8086682000.00,ACK
10944,8086732000.00,Start repeat
10945,8086753000.00,Address read: A1
10946,8086938000.00,Read
10947,8086974000.00,ACK
10948,8087025000.00,Data read: E0
10949,8087269000.00,ACK
10950,8087305000.00,Data read: D0
10951,8087542000.00,ACK
10952,8087578000.00,Data read: B1
10953,8087810000.00,NACK
10954,8087849000.00,Stop
10955,8097148000.00,Start
10956,8097168000.00,Address write: A0
10957,8097354000.00,Write
10958,8097389000.00,ACK
10959,8097440000.00,Data write: 05
10960,8097666000.00,ACK
10961,8097716000.00,Start repeat
10962,8097736000.00,Address read: A1
10963,8097922000.00,Read
10964,8097957000.00,ACK
10965,8098009000.00,Data read: E0
10966,8098252000.00,ACK
10967,8098288000.00,Data read: D1
10968,8098525000.00,ACK
10969,8098561000.00,Data read: C5
10970,8098793000.00,NACK
10971,8098832000.00,Stop
10972,8098855000.00,Start
10973,8098875000.00,Address write: A0
10974,8099066000.00,Write
10975,8099102000.00,ACK
10976,8099164000.00,Data write: 01
10977,8099385000.00,ACK
10978,8099435000.00,Data write: 33
10979,8099661000.00,ACK
10980,8099712000.00,Stop
10981,8109135000.00,Start
10982,8109156000.00,Address write: A0
10983,8109341000.00,Write
10984,8109377000.00,ACK
10985,8109427000.00,Data write: 05
10986,8109653000.00,ACK
10987,8109703000.00,Start repeat
10988,8109724000.00,Address read: A1
10989,8109909000.00,Read
10990,8109945000.00,ACK
10991,8109996000.00,Data read: E0
10992,8110240000.00,ACK
10993,8110276000.00,Data read: D1
10994,8110513000.00,ACK
10995,8110549000.00,Data read: C4
10996,8110781000.00,NACK
10997,8110820000.00,Stop
10998,8120116000.00,Start
10999,8120137000.00,Address write: A0
11000,8120322000.00,Write
11001,8120358000.00,ACK
11002,8120408000.00,Data write: 05
11003,8120634000.00,ACK
11004,8120684000.00,Start repeat
11005,8120705000.00,Address read: A1
11006,8120891000.00,Read
11007,8120926000.00,ACK
11008,8120978000.00,Data read: E0
11009,8121222000.00,ACK
11010,8121258000.00,Data read: D1
11011,8121494000.00,ACK
11012,8121530000.00,Data read: C4
11013,8121762000.00,NACK
11014,8121802000.00,Stop
11015,8150303000.00,Start
11016,8150324000.00,Address write: A0
11017,8150514000.00,Write
11018,8150550000.00,ACK
11019,8150600000.00,Data write: 05
11020,8150821000.00,ACK
11021,8150871000.00,Start repeat
11022,8150892000.00,Address read: A1
11023,8151094000.00,Read
11024,8151130000.00,ACK
11025,8151176000.00,Data read: 9F
11026,8151408000.00,ACK
11027,8151449000.00,Data read: 7E
11028,8151681000.00,ACK
11029,8151717000.00,Data read: F9
11030,8151954000.00,NACK
11031,8151993000.00,Stop
11032,8161068000.00,Start
11033,8161088000.00,Address write: A0
11034,8161274000.00,Write
11035,8161309000.00,ACK
11036,8161360000.00,Data write: 05
11037,8161586000.00,ACK
11038,8161636000.00,Start repeat
11039,8161657000.00,Address read: A1
11040,8161842000.00,Read
11041,8161878000.00,ACK
11042,8161929000.00,Data read: 9F
11043,8162173000.00,ACK
11044,8162209000.00,Data read: 7B
11045,8162446000.00,ACK
11046,8162482000.00,Data read: 27
11047,8162714000.00,NACK
11048,8162753000.00,Stop
11049,8172054000.00,Start
11050,8172075000.00,Address write: A0
11051,8172261000.00,Write
11052,8172296000.00,ACK
11053,8172347000.00,Data write: 05
11054,8172573000.00,ACK
11055,8172623000.00,Start repeat
11056,8172643000.00,Address read: A1
11057,8172829000.00,Read
11058,8172864000.00,ACK
11059,8172916000.00,Data read: 9F
11060,8173160000.00,ACK
11061,8173196000.00,Data read: 82
11062,8173432000.00,ACK
11063,8173468000.00,Data read: 73
11064,8173700000.00,NACK
11065,8173739000.00,Stop
11066,8183042000.00,Start
11067,8183062000.00,Address write: A0
11068,8183248000.00,Write
11069,8183283000.00,ACK
11070,8183334000.00,Data write: 05
11071,8183560000.00,ACK
11072,8183610000.00,Start repeat
11073,8183631000.00,Address read: A1
11074,8183816000.00,Read
11075,8183852000.00,ACK
11076,8183903000.00,Data read: 9F
11077,8184147000.00,ACK
11078,8184183000.00,Data read: 79
11079,8184420000.00,ACK
11080,8184456000.00,Data read: F9
11081,8184688000.00,NACK
11082,8184727000.00,Stop
11083,8194029000.00,Start
11084,8194049000.00,Address write: A0
11085,8194235000.00,Write
11086,8194270000.00,ACK
11087,8194321000.00,Data write: 05
11088,8194547000.00,ACK
11089,8194597000.00,Start repeat
11090,8194618000.00,Address read: A1
11091,8194803000.00,Read
11092,8194839000.00,ACK
11093,8194890000.00,Data read: 9F
11094,8195135000.00,ACK
11095,8195170000.00,Data read: 7C
11096,8195407000.00,ACK
11097,8195443000.00,Data read: 65
11098,8195675000.00,NACK
11099,8195714000.00,Stop
11100,8205011000.00,Start
11101,8205031000.00,Address write: A0
11102,8205217000.00,Write
11103,8205252000.00,ACK
11104,8205303000.00,Data write: 05
11105,8205529000.00,ACK
11106,8205578000.00,Start repeat
11107,8205599000.00,Address read: A1
11108,8205785000.00,Read
11109,8205820000.00,ACK
11110,8205872000.00,Data read: 9F
11111,8206116000.00,ACK
11112,8206151000.00,Data read: 7E
11113,8206388000.00,ACK
11114,8206424000.00,Data read: 33
11115,8206656000.00,NACK
11116,8206695000.00,Stop
11117,8215999000.00,Start
11118,8216020000.00,Address write: A0
11119,8216206000.00,Write
11120,8216241000.00,ACK
11121,8216291000.00,Data write: 05
11122,8216518000.00,ACK
11123,8216568000.00,Start repeat
11124,8216588000.00,Address read: A1
11125,8216774000.00,Read
11126,8216809000.00,ACK
11127,8216861000.00,Data read: 9F
11128,8217105000.00,ACK
11129,8217141000.00,Data read: 80
11130,8217378000.00,ACK
11131,8217414000.00,Data read: 89
11132,8217645000.00,NACK
11133,8217685000.00,Stop
11134,8226986000.00,Start
11135,8227006000.00,Address write: A0
11136,8227192000.00,Write
11137,8227227000.00,ACK
11138,8227278000.00,Data write: 05
11139,8227504000.00,ACK
11140,8227554000.00,Start repeat
11141,8227575000.00,Address read: A1
11142,8227760000.00,Read
11143,8227796000.00,ACK
11144,8227847000.00,Data read: 9F
11145,8228091000.00,ACK
11146,8228127000.00,Data read: 83
11147,8228364000.00,ACK
11148,8228400000.00,Data read: 15
11149,8228632000.00,NACK
11150,8228671000.00,Stop
11151,8237970000.00,Start
11152,8237991000.00,Address write: A0
11153,8238177000.00,Write
11154,8238212000.00,ACK
11155,8238263000.00,Data write: 05
11156,8238489000.00,ACK
11157,8238539000.00,Start repeat
11158,8238559000.00,Address read: A1
11159,8238745000.00,Read
11160,8238780000.00,ACK
11161,8238832000.00,Data read: 9F
11162,8239076000.00,ACK
11163,8239112000.00,Data read: 7A
11164,8239349000.00,ACK
11165,8239385000.00,Data read: 43
11166,8239616000.00,NACK
11167,8239656000.00,Stop
11168,8248963000.00,Start
11169,8248984000.00,Address write: A0
11170,8249169000.00,Write
11171,8249205000.00,ACK
11172,8249255000.00,Data write: 05
11173,8249481000.00,ACK
11174,8249531000.00,Start repeat
11175,8249552000.00,Address read: A1
11176,8249738000.00,Read
11177,8249773000.00,ACK
11178,8249825000.00,Data read: 9F
11179,8250069000.00,ACK
11180,8250105000.00,Data read: 81
11181,8250342000.00,ACK
11182,8250377000.00,Data read: 17
11183,8250609000.00,NACK
11184,8250649000.00,Stop
11185,8250671000.00,Start
11186,8250692000.00,Address write: A0
11187,8250882000.00,Write
11188,8250919000.00,ACK
11189,8250980000.00,Data write: 01
11190,8251202000.00,ACK
11191,8251252000.00,Data write: 31
11192,8251478000.00,ACK
11193,8251528000.00,Stop
11194,8270971000.00,Start
11195,8270991000.00,Address write: A0
11196,8271177000.00,Write
11197,8271212000.00,ACK
11198,8271262000.00,Data write: 05
11199,8271488000.00,ACK
11200,8271538000.00,Start repeat
11201,8271559000.00,Address read: A1
11202,8271744000.00,Read
11203,8271785000.00,ACK
11204,8271832000.00,Data read: 9F
11205,8272075000.00,ACK
11206,8272111000.00,Data read: 81
11207,8272348000.00,ACK
11208,8272384000.00,Data read: 16
11209,8272616000.00,NACK
11210,8272655000.00,Stop
11211,8281921000.00,Start
11212,8281942000.00,Address write: A0
11213,8282128000.00,Write
11214,8282163000.00,ACK
11215,8282214000.00,Data write: 05
11216,8282440000.00,ACK
11217,8282490000.00,Start repeat
11218,8282510000.00,Address read: A1
11219,8282696000.00,Read
11220,8282731000.00,ACK
11221,8282783000.00,Data read: 8A
11222,8283027000.00,ACK
11223,8283063000.00,Data read: C6
11224,8283300000.00,ACK
11225,8283335000.00,Data read: AF
11226,8283567000.00,NACK
11227,8283607000.00,Stop
11228,8292907000.00,Start
11229,8292928000.00,Address write: A0
11230,8293113000.00,Write
11231,8293149000.00,ACK
11232,8293199000.00,Data write: 05
11233,8293425000.00,ACK
11234,8293475000.00,Start repeat
11235,8293496000.00,Address read: A1
11236,8293682000.00,Read
11237,8293717000.00,ACK
11238,8293769000.00,Data read: 8A
11239,8294013000.00,ACK
11240,8294048000.00,Data read: BE
11241,8294285000.00,ACK
11242,8294321000.00,Data read: 29
11243,8294553000.00,NACK
11244,8294593000.00,Stop
11245,8303894000.00,Start
11246,8303914000.00,Address write: A0
11247,8304100000.00,Write
11248,8304136000.00,ACK
11249,8304186000.00,Data write: 05
11250,8304412000.00,ACK
11251,8304462000.00,Start repeat
11252,8304483000.00,Address read: A1
11253,8304668000.00,Read
11254,8304704000.00,ACK
11255,8304756000.00,Data read: 8A
11256,8305000000.00,ACK
11257,8305036000.00,Data read: B9
11258,8305273000.00,ACK
11259,8305308000.00,Data read: 4D
11260,8305540000.00,NACK
11261,8305580000.00,Stop
11262,8314888000.00,Start
11263,8314909000.00,Address write: A0
11264,8315095000.00,Write
11265,8315130000.00,ACK
11266,8315180000.00,Data write: 05
11267,8315407000.00,ACK
11268,8315457000.00,Start repeat
11269,8315477000.00,Address read: A1
11270,8315663000.00,Read
11271,8315698000.00,ACK
11272,8315750000.00,Data read: 8A
11273,8315994000.00,ACK
11274,8316030000.00,Data read: B7
11275,8316267000.00,ACK
11276,8316303000.00,Data read: 2F
11277,8316535000.00,NACK
11278,8316574000.00,Stop
11279,8325877000.00,Start
11280,8325898000.00,Address write: A0
11281,8326084000.00,Write
11282,8326119000.00,ACK
11283,8326170000.00,Data write: 05
11284,8326396000.00,ACK
11285,8326446000.00,Start repeat
11286,8326466000.00,Address read: A1
11287,8326652000.00,Read
11288,8326688000.00,ACK
11289,8326739000.00,Data read: 8A
11290,8326983000.00,ACK
11291,8327019000.00,Data read: B8
11292,8327256000.00,ACK
11293,8327292000.00,Data read: 69
11294,8327524000.00,NACK
11295,8327563000.00,Stop
11296,8336871000.00,Start
11297,8336892000.00,Address write: A0
11298,8337078000.00,Write
11299,8337113000.00,ACK
11300,8337163000.00,Data write: 05
11301,8337390000.00,ACK
11302,8337440000.00,Start repeat
11303,8337460000.00,Address read: A1
11304,8337646000.00,Read
11305,8337681000.00,ACK
11306,8337733000.00,Data read: 8A
11307,8337977000.00,ACK
11308,8338013000.00,Data read: B4
11309,8338250000.00,ACK
11310,8338286000.00,Data read: 25
11311,8338517000.00,NACK
11312,8338557000.00,Stop
11313,8347859000.00,Start
11314,8347879000.00,Address write: A0
11315,8348065000.00,Write
11316,8348100000.00,ACK
11317,8348151000.00,Data write: 05
11318,8348377000.00,ACK
11319,8348427000.00,Start repeat
11320,8348448000.00,Address read: A1
11321,8348633000.00,Read
11322,8348669000.00,ACK
11323,8348720000.00,Data read: 8A
11324,8348964000.00,ACK
11325,8349000000.00,Data read: B6
11326,8349237000.00,ACK
11327,8349273000.00,Data read: 0D
11328,8349505000.00,NACK
11329,8349544000.00,Stop
11330,8358845000.00,Start
11331,8358865000.00,Address write: A0
11332,8359051000.00,Write
11333,8359087000.00,ACK
11334,8359137000.00,Data write: 05
11335,8359363000.00,ACK
11336,8359413000.00,Start repeat
11337,8359434000.00,Address read: A1
11338,8359619000.00,Read
11339,8359655000.00,ACK
11340,8359706000.00,Data read: 8A
11341,8359950000.00,ACK
11342,8359986000.00,Data read: B3
11343,8360223000.00,ACK
11344,8360259000.00,Data read: B7
11345,8360491000.00,NACK
11346,8360530000.00,Stop
11347,8369838000.00,Start
11348,8369858000.00,Address write: A0
11349,8370044000.00,Write
11350,8370079000.00,ACK
11351,8370130000.00,Data write: 05
11352,8370356000.00,ACK
11353,8370406000.00,Start repeat
11354,8370426000.00,Address read: A1
11355,8370612000.00,Read
11356,8370647000.00,ACK
11357,8370699000.00,Data read: 8A
11358,8370943000.00,ACK
11359,8370979000.00,Data read: B4
11360,8371215000.00,ACK
11361,8371251000.00,Data read: 23
11362,8371483000.00,NACK
11363,8371522000.00,Stop
11364,8390757000.00,Start
11365,8390777000.00,Address write: A0
11366,8390974000.00,Write
11367,8391010000.00,ACK
11368,8391060000.00,Data write: 05
11369,8391286000.00,ACK
11370,8391336000.00,Start repeat
11371,8391357000.00,Address read: A1
11372,8391542000.00,Read
11373,8391578000.00,ACK
11374,8391624000.00,Data read: 8A
11375,8391873000.00,ACK
11376,8391909000.00,Data read: B0
11377,8392141000.00,ACK
11378,8392182000.00,Data read: CF
11379,8392414000.00,NACK
11380,8392453000.00,Stop
11381,8392476000.00,Start
11382,8392496000.00,Address write: A0
11383,8392687000.00,Write
11384,8392722000.00,ACK
11385,8392774000.00,Data write: 01
11386,8393006000.00,ACK
11387,8393056000.00,Data write: 32
11388,8393282000.00,ACK
11389,8393333000.00,Stop
11390,8403795000.00,Start
11391,8403815000.00,Address write: A0
11392,8404001000.00,Write
11393,8404036000.00,ACK
11394,8404087000.00,Data write: 05
11395,8404313000.00,ACK
11396,8404363000.00,Start repeat
11397,8404383000.00,Address read: A1
11398,8404569000.00,Read
11399,8404604000.00,ACK
11400,8404656000.00,Data read: 8A
11401,8404900000.00,ACK
11402,8404936000.00,Data read: B0
11403,8405172000.00,ACK
11404,8405208000.00,Data read: CE
11405,8405440000.00,NACK
11406,8405479000.00,Stop
11407,8414779000.00,Start
11408,8414800000.00,Address write: A0
11409,8414985000.00,Write
11410,8415021000.00,ACK
11411,8415071000.00,Data write: 05
11412,8415297000.00,ACK
11413,8415347000.00,Start repeat
11414,8415368000.00,Address read: A1
11415,8415553000.00,Read
11416,8415589000.00,ACK
11417,8415640000.00,Data read: 8A
11418,8415884000.00,ACK
11419,8415920000.00,Data read: B0
11420,8416157000.00,ACK
11421,8416193000.00,Data read: CE
11422,8416425000.00,NACK
11423,8416464000.00,Stop
11424,8425771000.00,Start
11425,8425792000.00,Address write: A0
11426,8425978000.00,Write
11427,8426013000.00,ACK
11428,8426063000.00,Data write: 05
11429,8426290000.00,ACK
11430,8426339000.00,Start repeat
11431,8426360000.00,Address read: A1
11432,8426546000.00,Read
11433,8426581000.00,ACK
11434,8426633000.00,Data read: E0
11435,8426877000.00,ACK
11436,8426913000.00,Data read: C8
11437,8427150000.00,ACK
11438,8427186000.00,Data read: 29
11439,8427417000.00,NACK
11440,8427457000.00,Stop
11441,8436757000.00,Start
11442,8436778000.00,Address write: A0
11443,8436963000.00,Write
11444,8436999000.00,ACK
11445,8437049000.00,Data write: 05
11446,8437275000.00,ACK
11447,8437325000.00,Start repeat
11448,8437346000.00,Address read: A1
11449,8437532000.00,Read
11450,8437567000.00,ACK
11451,8437619000.00,Data read: E0
11452,8437863000.00,ACK
11453,8437899000.00,Data read: C7
11454,8438135000.00,ACK
11455,8438171000.00,Data read: B3
11456,8438403000.00,NACK
11457,8438443000.00,Stop
11458,8447743000.00,Start
11459,8447763000.00,Address write: A0
11460,8447949000.00,Write
11461,8447984000.00,ACK
11462,8448035000.00,Data write: 05
11463,8448261000.00,ACK
11464,8448311000.00,Start repeat
11465,8448332000.00,Address read: A1
11466,8448517000.00,Read
11467,8448553000.00,ACK
11468,8448604000.00,Data read: E0
11469,8448848000.00,ACK
11470,8448884000.00,Data read: C9
11471,8449121000.00,ACK
11472,8449157000.00,Data read: DD
11473,8449389000.00,NACK
11474,8449428000.00,Stop
11475,8458733000.00,Start
11476,8458753000.00,Address write: A0
11477,8458939000.00,Write
11478,8458974000.00,ACK
11479,8459025000.00,Data write: 05
11480,8459251000.00,ACK
11481,8459301000.00,Start repeat
11482,8459322000.00,Address read: A1
11483,8459507000.00,Read
11484,8459543000.00,ACK
11485,8459594000.00,Data read: E0
11486,8459838000.00,ACK
11487,8459874000.00,Data read: C7
11488,8460111000.00,ACK
11489,8460147000.00,Data read: A1
11490,8460379000.00,NACK
11491,8460418000.00,Stop
11492,8469719000.00,Start
11493,8469739000.00,Address write: A0
11494,8469925000.00,Write
11495,8469960000.00,ACK
11496,8470011000.00,Data write: 05
11497,8470237000.00,ACK
11498,8470287000.00,Start repeat
11499,8470307000.00,Address read: A1
11500,8470493000.00,Read
11501,8470529000.00,ACK
11502,8470580000.00,Data read: E0
11503,8470824000.00,ACK
11504,8470860000.00,Data read: CC
11505,8471097000.00,ACK
11506,8471133000.00,Data read: 7D
11507,8471365000.00,NACK
11508,8471404000.00,Stop
11509,8480704000.00,Start
11510,8480724000.00,Address write: A0
11511,8480910000.00,Write
11512,8480946000.00,ACK
11513,8480996000.00,Data write: 05
11514,8481222000.00,ACK
11515,8481272000.00,Start repeat
11516,8481293000.00,Address read: A1
11517,8481478000.00,Read
11518,8481514000.00,ACK
11519,8481565000.00,Data read: E0
11520,8481809000.00,ACK
11521,8481845000.00,Data read: CD
11522,8482082000.00,ACK
11523,8482118000.00,Data read: 15
11524,8482350000.00,NACK
11525,8482389000.00,Stop
11526,8508896000.00,Start
11527,8508917000.00,Address write: A0
11528,8509107000.00,Write
11529,8509143000.00,ACK
11530,8509193000.00,Data write: 05
11531,8509414000.00,ACK
11532,8509464000.00,Start repeat
11533,8509485000.00,Address read: A1
11534,8509687000.00,Read
11535,8509723000.00,ACK
11536,8509769000.00,Data read: E0
11537,8510001000.00,ACK
11538,8510042000.00,Data read: CE
11539,8510274000.00,ACK
11540,8510310000.00,Data read: 13
11541,8510547000.00,NACK
11542,8510586000.00,Stop
11543,8519659000.00,Start
11544,8519679000.00,Address write: A0
11545,8519865000.00,Write
11546,8519900000.00,ACK
11547,8519951000.00,Data write: 05
11548,8520177000.00,ACK
11549,8520227000.00,Start repeat
11550,8520247000.00,Address read: A1
11551,8520433000.00,Read
11552,8520469000.00,ACK
11553,8520520000.00,Data read: E0
11554,8520764000.00,ACK
11555,8520800000.00,Data read: CE
11556,8521037000.00,ACK
11557,8521073000.00,Data read: A9
11558,8521304000.00,NACK
11559,8521344000.00,Stop
11560,8530645000.00,Start
11561,8530665000.00,Address write: A0
11562,8530851000.00,Write
11563,8530886000.00,ACK
11564,8530937000.00,Data write: 05
11565,8531163000.00,ACK
11566,8531213000.00,Start repeat
11567,8531233000.00,Address read: A1
11568,8531419000.00,Read
11569,8531454000.00,ACK
11570,8531506000.00,Data read: E0
11571,8531750000.00,ACK
11572,8531786000.00,Data read: CF
11573,8532023000.00,ACK
11574,8532059000.00,Data read: F5
11575,8532290000.00,NACK
11576,8532330000.00,Stop
11577,8541630000.00,Start
11578,8541650000.00,Address write: A0
11579,8541836000.00,Write
11580,8541871000.00,ACK
11581,8541922000.00,Data write: 05
11582,8542148000.00,ACK
11583,8542198000.00,Start repeat
11584,8542218000.00,Address read: A1
11585,8542404000.00,Read
11586,8542439000.00,ACK
11587,8542491000.00,Data read: E0
11588,8542735000.00,ACK
11589,8542770000.00,Data read: CD
11590,8543007000.00,ACK
11591,8543043000.00,Data read: 7B
11592,8543275000.00,NACK
11593,8543314000.00,Stop
11594,8543337000.00,Start
11595,8543357000.00,Address write: A0
11596,8543548000.00,Write
11597,8543584000.00,ACK
11598,8543646000.00,Data write: 01
11599,8543867000.00,ACK
11600,8543917000.00,Data write: 33
11601,8544143000.00,ACK
11602,8544193000.00,Stop
11603,8553618000.00,Start
11604,8553639000.00,Address write: A0
11605,8553825000.00,Write
11606,8553860000.00,ACK
11607,8553910000.00,Data write: 05
11608,8554137000.00,ACK
11609,8554187000.00,Start repeat
11610,8554207000.00,Address read: A1
11611,8554393000.00,Read
11612,8554428000.00,ACK
11613,8554480000.00,Data read: E0
11614,8554724000.00,ACK
11615,8554760000.00,Data read: CD
11616,8554997000.00,ACK
11617,8555032000.00,Data read: 7A
11618,8555264000.00,NACK
11619,8555304000.00,Stop
11620,8564603000.00,Start
11621,8564623000.00,Address write: A0
11622,8564809000.00,Write
11623,8564844000.00,ACK
11624,8564895000.00,Data write: 05
11625,8565121000.00,ACK
11626,8565171000.00,Start repeat
11627,8565191000.00,Address read: A1
11628,8565377000.00,Read
11629,8565412000.00,ACK
11630,8565464000.00,Data read: E0
11631,8565708000.00,ACK
11632,8565744000.00,Data read: CD
11633,8565980000.00,ACK
11634,8566016000.00,Data read: 7A
11635,8566248000.00,NACK
11636,8566287000.00,Stop
11637,8575594000.00,Start
11638,8575615000.00,Address write: A0
11639,8575800000.00,Write
11640,8575836000.00,ACK
11641,8575886000.00,Data write: 05
11642,8576112000.00,ACK
11643,8576162000.00,Start repeat
11644,8576183000.00,Address read: A1
11645,8576368000.00,Read
11646,8576404000.00,ACK
11647,8576456000.00,Data read: 9F
11648,8576700000.00,ACK
11649,8576735000.00,Data read: 83
11650,8576972000.00,ACK
11651,8577008000.00,Data read: 57
11652,8577240000.00,NACK
11653,8577280000.00,Stop
11654,8586578000.00,Start
11655,8586598000.00,Address write: A0
11656,8586784000.00,Write
11657,8586819000.00,ACK
11658,8586870000.00,Data write: 05
11659,8587096000.00,ACK
11660,8587146000.00,Start repeat
11661,8587166000.00,Address read: A1
11662,8587352000.00,Read
11663,8587387000.00,ACK
11664,8587439000.00,Data read: 9F
11665,8587683000.00,ACK
11666,8587719000.00,Data read: 86
11667,8587955000.00,ACK
11668,8587991000.00,Data read: 0F
11669,8588223000.00,NACK
11670,8588262000.00,Stop
11671,8597561000.00,Start
11672,8597582000.00,Address write: A0
11673,8597768000.00,Write
11674,8597803000.00,ACK
11675,8597854000.00,Data write: 05
11676,8598080000.00,ACK
11677,8598129000.00,Start repeat
11678,8598150000.00,Address read: A1
11679,8598336000.00,Read
11680,8598371000.00,ACK
11681,8598423000.00,Data read: 9F
11682,8598667000.00,ACK
11683,8598702000.00,Data read: 7D
11684,8598939000.00,ACK
11685,8598975000.00,Data read: 4B
11686,8599207000.00,NACK
11687,8599246000.00,Stop
11688,8608547000.00,Start
11689,8608568000.00,Address write: A0
11690,8608753000.00,Write
11691,8608789000.00,ACK
11692,8608839000.00,Data write: 05
11693,8609065000.00,ACK
11694,8609115000.00,Start repeat
11695,8609136000.00,Address read: A1
11696,8609321000.00,Read
11697,8609357000.00,ACK
11698,8609408000.00,Data read: 9F
11699,8609652000.00,ACK
11700,8609688000.00,Data read: 84
11701,8609925000.00,ACK
11702,8609961000.00,Data read: AD
11703,8610192000.00,NACK
11704,8610232000.00,Stop
11705,8629467000.00,Start
11706,8629489000.00,Address write: A0
11707,8629685000.00,Write
11708,8629721000.00,ACK
11709,8629771000.00,Data write: 05
11710,8629997000.00,ACK
11711,8630047000.00,Start repeat
11712,8630068000.00,Address read: A1
11713,8630254000.00,Read
11714,8630289000.00,ACK
11715,8630336000.00,Data read: 9F
11716,8630585000.00,ACK
11717,8630621000.00,Data read: 83
11718,8630853000.00,ACK
11719,8630894000.00,Data read: 4F
11720,8631125000.00,NACK
11721,8631165000.00,Stop
11722,8640518000.00,Start
11723,8640539000.00,Address write: A0
11724,8640725000.00,Write
11725,8640760000.00,ACK
11726,8640811000.00,Data write: 05
11727,8641037000.00,ACK
11728,8641087000.00,Start repeat
11729,8641107000.00,Address read: A1
11730,8641293000.00,Read
11731,8641328000.00,ACK
11732,8641380000.00,Data read: 9F
11733,8641624000.00,ACK
11734,8641660000.00,Data read: 7B
11735,8641897000.00,ACK
11736,8641933000.00,Data read: BD
11737,8642164000.00,NACK
11738,8642204000.00,Stop
11739,8651502000.00,Start
11740,8651522000.00,Address write: A0
11741,8651708000.00,Write
11742,8651743000.00,ACK
11743,8651794000.00,Data write: 05
11744,8652020000.00,ACK
11745,8652070000.00,Start repeat
11746,8652090000.00,Address read: A1
11747,8652276000.00,Read
11748,8652311000.00,ACK
11749,8652363000.00,Data read: 9F
11750,8652607000.00,ACK
11751,8652643000.00,Data read: 84
11752,8652879000.00,ACK
11753,8652915000.00,Data read: 77
11754,8653147000.00,NACK
11755,8653187000.00,Stop
11756,8662487000.00,Start
11757,8662508000.00,Address write: A0
11758,8662693000.00,Write
11759,8662729000.00,ACK
11760,8662779000.00,Data write: 05
11761,8663005000.00,ACK
11762,8663055000.00,Start repeat
11763,8663076000.00,Address read: A1
11764,8663262000.00,Read
11765,8663297000.00,ACK
11766,8663349000.00,Data read: 9F
11767,8663593000.00,ACK
11768,8663628000.00,Data read: 82
11769,8663865000.00,ACK
11770,8663901000.00,Data read: B9
11771,8664133000.00,NACK
11772,8664172000.00,Stop
11773,8673476000.00,Start
11774,8673496000.00,Address write: A0
11775,8673682000.00,Write
11776,8673717000.00,ACK
11777,8673768000.00,Data write: 05
11778,8673994000.00,ACK
11779,8674043000.00,Start repeat
11780,8674064000.00,Address read: A1
11781,8674250000.00,Read
11782,8674285000.00,ACK
11783,8674337000.00,Data read: 9F
11784,8674580000.00,ACK
11785,8674616000.00,Data read: 80
11786,8674853000.00,ACK
11787,8674889000.00,Data read: 0D
11788,8675121000.00,NACK
11789,8675160000.00,Stop
11790,8684461000.00,Start
11791,8684482000.00,Address write: A0
11792,8684668000.00,Write
11793,8684703000.00,ACK
11794,8684754000.00,Data write: 05
11795,8684980000.00,ACK
11796,8685030000.00,Start repeat
11797,8685050000.00,Address read: A1
11798,8685236000.00,Read
11799,8685271000.00,ACK
11800,8685323000.00,Data read: 9F
11801,8685567000.00,ACK
11802,8685603000.00,Data read: 7E
11803,8685840000.00,ACK
11804,8685876000.00,Data read: CF
11805,8686108000.00,NACK
11806,8686147000.00,Stop
11807,8686169000.00,Start
11808,8686190000.00,Address write: A0
11809,8686381000.00,Write
11810,8686417000.00,ACK
11811,8686478000.00,Data write: 01
11812,8686700000.00,ACK
11813,8686750000.00,Data write: 31
11814,8686976000.00,ACK
11815,8687026000.00,Stop
11816,8696446000.00,Start
11817,8696466000.00,Address write: A0
11818,8696652000.00,Write
11819,8696687000.00,ACK
11820,8696738000.00,Data write: 05
11821,8696964000.00,ACK
11822,8697014000.00,Start repeat
11823,8697035000.00,Address read: A1
11824,8697220000.00,Read
11825,8697256000.00,ACK
11826,8697307000.00,Data read: 9F
11827,8697551000.00,ACK
11828,8697587000.00,Data read: 7E
11829,8697824000.00,ACK
11830,8697860000.00,Data read: CE
11831,8698092000.00,NACK
11832,8698131000.00,Stop
11833,8707440000.00,Start
11834,8707460000.00,Address write: A0
11835,8707646000.00,Write
11836,8707681000.00,ACK
11837,8707732000.00,Data write: 05
11838,8707958000.00,ACK
11839,8708008000.00,Start repeat
11840,8708029000.00,Address read: A1
11841,8708214000.00,Read
11842,8708250000.00,ACK
11843,8708301000.00,Data read: 9F
11844,8708545000.00,ACK
11845,8708581000.00,Data read: 7E
11846,8708818000.00,ACK
11847,8708854000.00,Data read: CE
11848,8709086000.00,NACK
11849,8709125000.00,Stop
11850,8718423000.00,Start
11851,8718444000.00,Address write: A0
11852,8718629000.00,Write
11853,8718665000.00,ACK
11854,8718715000.00,Data write: 05
11855,8718941000.00,ACK
11856,8718991000.00,Start repeat
11857,8719012000.00,Address read: A1
11858,8719197000.00,Read
11859,8719233000.00,ACK
11860,8719284000.00,Data read: 8A
11861,8719528000.00,ACK
11862,8719564000.00,Data read: C4
11863,8719801000.00,ACK
11864,8719837000.00,Data read: BD
11865,8720068000.00,NACK
11866,8720108000.00,Stop
11867,8747610000.00,Start
11868,8747631000.00,Address write: A0
11869,8747821000.00,Write
11870,8747857000.00,ACK
11871,8747907000.00,Data write: 05
11872,8748128000.00,ACK
11873,8748178000.00,Start repeat
11874,8748199000.00,Address read: A1
11875,8748401000.00,Read
11876,8748436000.00,ACK
11877,8748483000.00,Data read: 8A
11878,8748715000.00,ACK
11879,8748756000.00,Data read: B8
11880,8748988000.00,ACK
11881,8749023000.00,Data read: BB
11882,8749260000.00,NACK
11883,8749300000.00,Stop
11884,8758371000.00,Start
11885,8758392000.00,Address write: A0
11886,8758577000.00,Write
11887,8758613000.00,ACK
11888,8758663000.00,Data write: 05
11889,8758889000.00,ACK
11890,8758939000.00,Start repeat
11891,8758960000.00,Address read: A1
11892,8759145000.00,Read
11893,8759181000.00,ACK
11894,8759232000.00,Data read: 8A
11895,8759476000.00,ACK
11896,8759512000.00,Data read: B9
11897,8759749000.00,ACK
11898,8759785000.00,Data read: C3
11899,8760016000.00,NACK
11900,8760056000.00,Stop
11901,8769355000.00,Start
11902,8769375000.00,Address write: A0
11903,8769561000.00,Write
11904,8769596000.00,ACK
11905,8769647000.00,Data write: 05
11906,8769873000.00,ACK
11907,8769923000.00,Start repeat
11908,8769943000.00,Address read: A1
11909,8770129000.00,Read
11910,8770164000.00,ACK
11911,8770216000.00,Data read: 8A
11912,8770460000.00,ACK
11913,8770496000.00,Data read: B6
11914,8770733000.00,ACK
11915,8770769000.00,Data read: 27
11916,8771001000.00,NACK
11917,8771040000.00,Stop
11918,8780348000.00,Start
11919,8780368000.00,Address write: A0
11920,8780554000.00,Write
11921,8780589000.00,ACK
11922,8780640000.00,Data write: 05
11923,8780866000.00,ACK
11924,8780916000.00,Start repeat
11925,8780937000.00,Address read: A1
11926,8781122000.00,Read
11927,8781158000.00,ACK
11928,8781209000.00,Data read: 8A
11929,8781453000.00,ACK
11930,8781489000.00,Data read: B6
11931,8781726000.00,ACK
11932,8781762000.00,Data read: 0D
11933,8781994000.00,NACK
11934,8782033000.00,Stop
11935,8791336000.00,Start
11936,8791356000.00,Address write: A0
11937,8791542000.00,Write
11938,8791577000.00,ACK
11939,8791628000.00,Data write: 05
11940,8791854000.00,ACK
11941,8791904000.00,Start repeat
11942,8791924000.00,Address read: A1
11943,8792110000.00,Read
11944,8792146000.00,ACK
11945,8792197000.00,Data read: 8A
11946,8792441000.00,ACK
11947,8792477000.00,Data read: B2
11948,8792714000.00,ACK
11949,8792750000.00,Data read: F3
11950,8792982000.00,NACK
11951,8793021000.00,Stop
11952,8802322000.00,Start
11953,8802343000.00,Address write: A0
11954,8802528000.00,Write
11955,8802564000.00,ACK
11956,8802614000.00,Data write: 05
11957,8802841000.00,ACK
11958,8802890000.00,Start repeat
11959,8802911000.00,Address read: A1
11960,8803097000.00,Read
11961,8803132000.00,ACK
11962,8803184000.00,Data read: 8A
11963,8803428000.00,ACK
11964,8803464000.00,Data read: B2
11965,8803700000.00,ACK
11966,8803736000.00,Data read: BD
11967,8803968000.00,NACK
11968,8804008000.00,Stop
11969,8813316000.00,Start
11970,8813336000.00,Address write: A0
11971,8813522000.00,Write
11972,8813557000.00,ACK
11973,8813608000.00,Data write: 05
11974,8813834000.00,ACK
11975,8813884000.00,Start repeat
11976,8813905000.00,Address read: A1
11977,8814090000.00,Read
11978,8814126000.00,ACK
11979,8814177000.00,Data read: 8A
11980,8814421000.00,ACK
11981,8814457000.00,Data read: B1
11982,8814694000.00,ACK
11983,8814730000.00,Data read: 01
11984,8814962000.00,NACK
11985,8815001000.00,Stop
11986,8824301000.00,Start
11987,8824322000.00,Address write: A0
11988,8824507000.00,Write
11989,8824543000.00,ACK
11990,8824593000.00,Data write: 05
11991,8824819000.00,ACK
11992,8824869000.00,Start repeat
11993,8824890000.00,Address read: A1
11994,8825075000.00,Read
11995,8825111000.00,ACK
11996,8825163000.00,Data read: 8A
11997,8825406000.00,ACK
11998,8825442000.00,Data read: B1
11999,8825679000.00,ACK
12000,8825715000.00,Data read: 37
12001,8825947000.00,NACK
12002,8825986000.00,Stop
12003,8835285000.00,Start
12004,8835306000.00,Address write: A0
12005,8835492000.00,Write
12006,8835527000.00,ACK
12007,8835578000.00,Data write: 05
12008,8835804000.00,ACK
12009,8835854000.00,Start repeat
12010,8835874000.00,Address read: A1
12011,8836060000.00,Read
12012,8836095000.00,ACK
12013,8836147000.00,Data read: 8A
12014,8836391000.00,ACK
12015,8836427000.00,Data read: B2
12016,8836664000.00,ACK
12017,8836700000.00,Data read: 65
12018,8836932000.00,NACK
12019,8836971000.00,Stop
12020,8836993000.00,Start
12021,8837014000.00,Address write: A0
12022,8837205000.00,Write
12023,8837241000.00,ACK
12024,8837303000.00,Data write: 01
12025,8837524000.00,ACK
12026,8837574000.00,Data write: 32
12027,8837800000.00,ACK
12028,8837850000.00,Stop
12029,8866472000.00,Start
12030,8866493000.00,Address write: A0
12031,8866683000.00,Write
12032,8866719000.00,ACK
12033,8866769000.00,Data write: 05
12034,8866990000.00,ACK
12035,8867040000.00,Start repeat
12036,8867061000.00,Address read: A1
12037,8867263000.00,Read
12038,8867299000.00,ACK
12039,8867345000.00,Data read: E0
12040,8867577000.00,ACK
12041,8867618000.00,Data read: D7
12042,8867850000.00,ACK
12043,8867886000.00,Data read: C5
12044,8868123000.00,NACK
12045,8868162000.00,Stop
12046,8877238000.00,Start
12047,8877259000.00,Address write: A0
12048,8877444000.00,Write
12049,8877480000.00,ACK
12050,8877530000.00,Data write: 05
12051,8877756000.00,ACK
12052,8877806000.00,Start repeat
12053,8877827000.00,Address read: A1
12054,8878012000.00,Read
12055,8878048000.00,ACK
12056,8878100000.00,Data read: E0
12057,8878343000.00,ACK
12058,8878379000.00,Data read: D5
12059,8878616000.00,ACK
12060,8878652000.00,Data read: C5
12061,8878883000.00,NACK
12062,8878923000.00,Stop
12063,8888220000.00,Start
12064,8888241000.00,Address write: A0
12065,8888426000.00,Write
12066,8888462000.00,ACK
12067,8888512000.00,Data write: 05
12068,8888738000.00,ACK
12069,8888788000.00,Start repeat
12070,8888809000.00,Address read: A1
12071,8888994000.00,Read
12072,8889030000.00,ACK
12073,8889081000.00,Data read: E0
12074,8889325000.00,ACK
12075,8889361000.00,Data read: D4
12076,8889598000.00,ACK
12077,8889634000.00,Data read: FD
12078,8889865000.00,NACK
12079,8889905000.00,Stop
12080,8899211000.00,Start
12081,8899231000.00,Address write: A0
12082,8899417000.00,Write
12083,8899452000.00,ACK
12084,8899503000.00,Data write: 05
12085,8899729000.00,ACK
12086,8899779000.00,Start repeat
12087,8899799000.00,Address read: A1
12088,8899985000.00,Read
12089,8900020000.00,ACK
12090,8900072000.00,Data read: E0
12091,8900316000.00,ACK
12092,8900351000.00,Data read: D3
12093,8900588000.00,ACK
12094,8900624000.00,Data read: 9B
12095,8900856000.00,NACK
12096,8900895000.00,Stop
12097,8910197000.00,Start
12098,8910218000.00,Address write: A0
12099,8910403000.00,Write
12100,8910439000.00,ACK
12101,8910489000.00,Data write: 05
12102,8910715000.00,ACK
12103,8910765000.00,Start repeat
12104,8910786000.00,Address read: A1
12105,8910972000.00,Read
12106,8911007000.00,ACK
12107,8911059000.00,Data read: E0
12108,8911303000.00,ACK
12109,8911339000.00,Data read: D6
12110,8911576000.00,ACK
12111,8911611000.00,Data read: 05
12112,8911843000.00,NACK
12113,8911883000.00,Stop
12114,8921184000.00,Start
12115,8921205000.00,Address write: A0
12116,8921391000.00,Write
12117,8921426000.00,ACK
12118,8921476000.00,Data write: 05
12119,8921703000.00,ACK
12120,8921752000.00,Start repeat
12121,8921773000.00,Address read: A1
12122,8921959000.00,Read
12123,8921994000.00,ACK
12124,8922046000.00,Data read: E0
12125,8922290000.00,ACK
12126,8922326000.00,Data read: D4
12127,8922562000.00,ACK
12128,8922598000.00,Data read: 15
12129,8922830000.00,NACK
12130,8922870000.00,Stop
12131,8932178000.00,Start
12132,8932198000.00,Address write: A0
12133,8932384000.00,Write
12134,8932419000.00,ACK
12135,8932469000.00,Data write: 05
12136,8932696000.00,ACK
12137,8932745000.00,Start repeat
12138,8932766000.00,Address read: A1
12139,8932952000.00,Read
12140,8932987000.00,ACK
12141,8933039000.00,Data read: E0
12142,8933282000.00,ACK
12143,8933318000.00,Data read: D1
12144,8933555000.00,ACK
12145,8933591000.00,Data read: 39
12146,8933823000.00,NACK
12147,8933862000.00,Stop
12148,8943160000.00,Start
12149,8943181000.00,Address write: A0
12150,8943366000.00,Write
12151,8943402000.00,ACK
12152,8943452000.00,Data write: 05
12153,8943679000.00,ACK
12154,8943729000.00,Start repeat
12155,8943749000.00,Address read: A1
12156,8943935000.00,Read
12157,8943970000.00,ACK
12158,8944022000.00,Data read: E0
12159,8944266000.00,ACK
12160,8944302000.00,Data read: CF
12161,8944539000.00,ACK
12162,8944575000.00,Data read: 4F
12163,8944806000.00,NACK
12164,8944846000.00,Stop
12165,8954145000.00,Start
12166,8954165000.00,Address write: A0
12167,8954351000.00,Write
12168,8954386000.00,ACK
12169,8954437000.00,Data write: 05
12170,8954663000.00,ACK
12171,8954713000.00,Start repeat
12172,8954733000.00,Address read: A1
12173,8954919000.00,Read
12174,8954954000.00,ACK
12175,8955006000.00,Data read: E0
12176,8955250000.00,ACK
12177,8955286000.00,Data read: D0
12178,8955522000.00,ACK
12179,8955558000.00,Data read: 05
12180,8955790000.00,NACK
12181,8955829000.00,Stop
12182,8965135000.00,Start
12183,8965155000.00,Address write: A0
12184,8965341000.00,Write
12185,8965376000.00,ACK
12186,8965427000.00,Data write: 05
12187,8965653000.00,ACK
12188,8965703000.00,Start repeat
12189,8965723000.00,Address read: A1
12190,8965909000.00,Read
12191,8965944000.00,ACK
12192,8965996000.00,Data read: E0
12193,8966240000.00,ACK
12194,8966275000.00,Data read: D1
12195,8966512000.00,ACK
12196,8966548000.00,Data read: D1
12197,8966780000.00,NACK
12198,8966819000.00,Stop
12199,8966841000.00,Start
12200,8966862000.00,Address write: A0
12201,8967052000.00,Write
12202,8967089000.00,ACK
12203,8967150000.00,Data write: 01
12204,8967371000.00,ACK
12205,8967422000.00,Data write: 33
12206,8967647000.00,ACK
12207,8967698000.00,Stop
12208,8987145000.00,Start
12209,8987165000.00,Address write: A0
12210,8987351000.00,Write
12211,8987386000.00,ACK
12212,8987437000.00,Data write: 05
12213,8987663000.00,ACK
12214,8987713000.00,Start repeat
12215,8987734000.00,Address read: A1
12216,8987919000.00,Read
12217,8987960000.00,ACK
12218,8988006000.00,Data read: E0
12219,8988250000.00,ACK
12220,8988286000.00,Data read: D1
12221,8988523000.00,ACK
12222,8988559000.00,Data read: D0
12223,8988791000.00,NACK
12224,8988830000.00,Stop
12225,8998089000.00,Start
12226,8998110000.00,Address write: A0
12227,8998295000.00,Write
12228,8998331000.00,ACK
12229,8998381000.00,Data write: 05
12230,8998608000.00,ACK
12231,8998657000.00,Start repeat
12232,8998678000.00,Address read: A1
12233,8998864000.00,Read
12234,8998899000.00,ACK
12235,8998951000.00,Data read: 9F
12236,8999195000.00,ACK
12237,8999231000.00,Data read: 81
12238,8999467000.00,ACK
12239,8999503000.00,Data read: D5
12240,8999735000.00,NACK
12241,8999775000.00,Stop
12242,9009072000.00,Start
12243,9009093000.00,Address write: A0
12244,9009278000.00,Write
12245,9009314000.00,ACK
12246,9009364000.00,Data write: 05
12247,9009590000.00,ACK
12248,9009640000.00,Start repeat
12249,9009661000.00,Address read: A1
12250,9009846000.00,Read
12251,9009882000.00,ACK
12252,9009933000.00,Data read: 9F
12253,9010177000.00,ACK
12254,9010213000.00,Data read: 86
12255,9010450000.00,ACK
12256,9010485000.00,Data read: 55
12257,9010717000.00,NACK
12258,9010756000.00,Stop
12259,9020062000.00,Start
12260,9020082000.00,Address write: A0
12261,9020268000.00,Write
12262,9020303000.00,ACK
12263,9020354000.00,Data write: 05
12264,9020580000.00,ACK
12265,9020630000.00,Start repeat
12266,9020651000.00,Address read: A1
12267,9020836000.00,Read
12268,9020872000.00,ACK
12269,9020923000.00,Data read: 9F
12270,9021167000.00,ACK
12271,9021203000.00,Data read: 81
12272,9021440000.00,ACK
12273,9021476000.00,Data read: E5
12274,9021708000.00,NACK
12275,9021747000.00,Stop
12276,9031048000.00,Start
12277,9031068000.00,Address write: A0
12278,9031254000.00,Write
12279,9031289000.00,ACK
12280,9031340000.00,Data write: 05
12281,9031566000.00,ACK
12282,9031616000.00,Start repeat
12283,9031637000.00,Address read: A1
12284,9031822000.00,Read
12285,9031858000.00,ACK
12286,9031909000.00,Data read: 9F
12287,9032153000.00,ACK
12288,9032189000.00,Data read: 88
12289,9032426000.00,ACK
12290,9032462000.00,Data read: 59
12291,9032694000.00,NACK
12292,9032733000.00,Stop
12293,9042029000.00,Start
12294,9042050000.00,Address write: A0
12295,9042236000.00,Write
12296,9042271000.00,ACK
12297,9042321000.00,Data write: 05
12298,9042547000.00,ACK
12299,9042597000.00,Start repeat
12300,9042618000.00,Address read: A1
12301,9042804000.00,Read
12302,9042839000.00,ACK
12303,9042891000.00,Data read: 9F
12304,9043134000.00,ACK
12305,9043170000.00,Data read: 7F
12306,9043407000.00,ACK
12307,9043443000.00,Data read: 17
12308,9043675000.00,NACK
12309,9043714000.00,Stop
12310,9053022000.00,Start
12311,9053043000.00,Address write: A0
12312,9053228000.00,Write
12313,9053264000.00,ACK
12314,9053314000.00,Data write: 05
12315,9053540000.00,ACK
12316,9053590000.00,Start repeat
12317,9053611000.00,Address read: A1
12318,9053796000.00,Read
12319,9053832000.00,ACK
12320,9053883000.00,Data read: 9F
12321,9054127000.00,ACK
12322,9054163000.00,Data read: 80
12323,9054400000.00,ACK
12324,9054435000.00,Data read: DB
12325,9054667000.00,NACK
12326,9054707000.00,Stop
12327,9064008000.00,Start
12328,9064029000.00,Address write: A0
12329,9064215000.00,Write
12330,9064250000.00,ACK
12331,9064301000.00,Data write: 05
12332,9064527000.00,ACK
12333,9064577000.00,Start repeat
12334,9064597000.00,Address read: A1
12335,9064783000.00,Read
12336,9064818000.00,ACK
12337,9064870000.00,Data read: 9F
12338,9065114000.00,ACK
12339,9065150000.00,Data read: 83
12340,9065387000.00,ACK
12341,9065423000.00,Data read: B5
12342,9065655000.00,NACK
12343,9065694000.00,Stop
12344,9074996000.00,Start
12345,9075016000.00,Address write: A0
12346,9075202000.00,Write
12347,9075237000.00,ACK
12348,9075288000.00,Data write: 05
12349,9075514000.00,ACK
12350,9075564000.00,Start repeat
12351,9075585000.00,Address read: A1
12352,9075770000.00,Read
12353,9075806000.00,ACK
12354,9075857000.00,Data read: 9F
12355,9076101000.00,ACK
12356,9076137000.00,Data read: 85
12357,9076374000.00,ACK
12358,9076410000.00,Data read: 6B
12359,9076642000.00,NACK
12360,9076681000.00,Stop
12361,9085989000.00,Start
12362,9086010000.00,Address write: A0
12363,9086196000.00,Write
12364,9086231000.00,ACK
12365,9086281000.00,Data write: 05
12366,9086508000.00,ACK
12367,9086557000.00,Start repeat
12368,9086578000.00,Address read: A1
12369,9086764000.00,Read
12370,9086799000.00,ACK
12371,9086851000.00,Data read: 9F
12372,9087095000.00,ACK
12373,9087131000.00,Data read: 88
12374,9087368000.00,ACK
12375,9087403000.00,Data read: 91
12376,9087635000.00,NACK
12377,9087675000.00,Stop
12378,9106910000.00,Start
12379,9106931000.00,Address write: A0
12380,9107127000.00,Write
12381,9107163000.00,ACK
12382,9107213000.00,Data write: 05
12383,9107439000.00,ACK
12384,9107489000.00,Start repeat
12385,9107510000.00,Address read: A1
12386,9107695000.00,Read
12387,9107731000.00,ACK
12388,9107777000.00,Data read: 9F
12389,9108026000.00,ACK
12390,9108062000.00,Data read: 87
12391,9108294000.00,ACK
12392,9108335000.00,Data read: 1D
12393,9108567000.00,NACK
12394,9108606000.00,Stop
12395,9108628000.00,Start
12396,9108649000.00,Address write: A0
12397,9108840000.00,Write
12398,9108875000.00,ACK
12399,9108926000.00,Data write: 01
12400,9109158000.00,ACK
12401,9109209000.00,Data write: 31
12402,9109435000.00,ACK
12403,9109485000.00,Stop
12404,9118944000.00,Start
12405,9118965000.00,Address write: A0
12406,9119150000.00,Write
12407,9119186000.00,ACK
12408,9119236000.00,Data write: 05
12409,9119463000.00,ACK
12410,9119512000.00,Start repeat
12411,9119533000.00,Address read: A1
12412,9119719000.00,Read
12413,9119754000.00,ACK
12414,9119806000.00,Data read: 9F
12415,9120050000.00,ACK
12416,9120086000.00,Data read: 87
12417,9120323000.00,ACK
12418,9120359000.00,Data read: 1C
12419,9120590000.00,NACK
12420,9120630000.00,Stop
12421,9129937000.00,Start
12422,9129958000.00,Address write: A0
12423,9130143000.00,Write
12424,9130179000.00,ACK
12425,9130229000.00,Data write: 05
12426,9130455000.00,ACK
12427,9130505000.00,Start repeat
12428,9130526000.00,Address read: A1
12429,9130712000.00,Read
12430,9130747000.00,ACK
12431,9130799000.00,Data read: 9F
12432,9131043000.00,ACK
12433,9131079000.00,Data read: 87
12434,9131315000.00,ACK
12435,9131351000.00,Data read: 1C
12436,9131583000.00,NACK
12437,9131622000.00,Stop
12438,9140923000.00,Start
12439,9140943000.00,Address write: A0
12440,9141129000.00,Write
12441,9141164000.00,ACK
12442,9141215000.00,Data write: 05
12443,9141441000.00,ACK
12444,9141491000.00,Start repeat
12445,9141512000.00,Address read: A1
12446,9141697000.00,Read
12447,9141733000.00,ACK
12448,9141784000.00,Data read: 8A
12449,9142028000.00,ACK
12450,9142064000.00,Data read: C6
12451,9142301000.00,ACK
12452,9142337000.00,Data read: 63
12453,9142569000.00,NACK
12454,9142608000.00,Stop
12455,9151916000.00,Start
12456,9151936000.00,Address write: A0
12457,9152122000.00,Write
12458,9152158000.00,ACK
12459,9152208000.00,Data write: 05
12460,9152434000.00,ACK
12461,9152484000.00,Start repeat
12462,9152505000.00,Address read: A1
12463,9152690000.00,Read
12464,9152726000.00,ACK
12465,9152778000.00,Data read: 8A
12466,9153021000.00,ACK
12467,9153057000.00,Data read: B8
12468,9153294000.00,ACK
12469,9153330000.00,Data read: F9
12470,9153562000.00,NACK
12471,9153601000.00,Stop
12472,9162901000.00,Start
12473,9162921000.00,Address write: A0
12474,9163107000.00,Write
12475,9163142000.00,ACK
12476,9163193000.00,Data write: 05
12477,9163419000.00,ACK
12478,9163469000.00,Start repeat
12479,9163489000.00,Address read: A1
12480,9163675000.00,Read
12481,9163711000.00,ACK
12482,9163762000.00,Data read: 8A
12483,9164006000.00,ACK
12484,9164042000.00,Data read: B9
12485,9164279000.00,ACK
12486,9164315000.00,Data read: 8B
12487,9164547000.00,NACK
12488,9164586000.00,Stop
12489,9173888000.00,Start
12490,9173909000.00,Address write: A0
12491,9174095000.00,Write
12492,9174130000.00,ACK
12493,9174181000.00,Data write: 05
12494,9174407000.00,ACK
12495,9174457000.00,Start repeat
12496,9174477000.00,Address read: A1
12497,9174663000.00,Read
12498,9174698000.00,ACK
12499,9174750000.00,Data read: 8A
12500,9174994000.00,ACK
12501,9175030000.00,Data read: B6
12502,9175267000.00,ACK
12503,9175302000.00,Data read: 83
12504,9175534000.00,NACK
12505,9175574000.00,Stop
12506,9184880000.00,Start
12507,9184900000.00,Address write: A0
12508,9185086000.00,Write
12509,9185121000.00,ACK
12510,9185172000.00,Data write: 05
12511,9185398000.00,ACK
12512,9185448000.00,Start repeat
12513,9185468000.00,Address read: A1
12514,9185654000.00,Read
12515,9185690000.00,ACK
12516,9185741000.00,Data read: 8A
12517,9185985000.00,ACK
12518,9186021000.00,Data read: B6
12519,9186258000.00,ACK
12520,9186294000.00,Data read: 89
12521,9186526000.00,NACK
12522,9186565000.00,Stop
12523,9195865000.00,Start
12524,9195885000.00,Address write: A0
12525,9196071000.00,Write
12526,9196106000.00,ACK
12527,9196157000.00,Data write: 05
12528,9196383000.00,ACK
12529,9196433000.00,Start repeat
12530,9196454000.00,Address read: A1
12531,9196639000.00,Read
12532,9196675000.00,ACK
12533,9196726000.00,Data read: 8A
12534,9196970000.00,ACK
12535,9197006000.00,Data read: B3
12536,9197243000.00,ACK
12537,9197279000.00,Data read: CF
12538,9197511000.00,NACK
12539,9197550000.00,Stop
12540,9225057000.00,Start
12541,9225078000.00,Address write: A0
12542,9225268000.00,Write
12543,9225304000.00,ACK
12544,9225354000.00,Data write: 05
12545,9225575000.00,ACK
12546,9225625000.00,Start repeat
12547,9225646000.00,Address read: A1
12548,9225849000.00,Read
12549,9225884000.00,ACK
12550,9225931000.00,Data read: 8A
12551,9226163000.00,ACK
12552,9226204000.00,Data read: B2
12553,9226436000.00,ACK
12554,9226471000.00,Data read: 73
12555,9226708000.00,NACK
12556,9226748000.00,Stop
12557,9235821000.00,Start
12558,9235842000.00,Address write: A0
12559,9236027000.00,Write
12560,9236063000.00,ACK
12561,9236113000.00,Data write: 05
12562,9236339000.00,ACK
12563,9236389000.00,Start repeat
12564,9236410000.00,Address read: A1
12565,9236595000.00,Read
12566,9236631000.00,ACK
12567,9236682000.00,Data read: 8A
12568,9236926000.00,ACK
12569,9236962000.00,Data read: B3
12570,9237199000.00,ACK
12571,9237235000.00,Data read: D3
12572,9237466000.00,NACK
12573,9237506000.00,Stop
12574,9246804000.00,Start
12575,9246825000.00,Address write: A0
12576,9247010000.00,Write
12577,9247046000.00,ACK
12578,9247096000.00,Data write: 05
12579,9247322000.00,ACK
12580,9247372000.00,Start repeat
12581,9247393000.00,Address read: A1
12582,9247578000.00,Read
12583,9247614000.00,ACK
12584,9247665000.00,Data read: 8A
12585,9247909000.00,ACK
12586,9247945000.00,Data read: B1
12587,9248182000.00,ACK
12588,9248218000.00,Data read: 35
12589,9248450000.00,NACK
12590,9248489000.00,Stop
12591,9257790000.00,Start
12592,9257811000.00,Address write: A0
12593,9257996000.00,Write
12594,9258032000.00,ACK
12595,9258082000.00,Data write: 05
12596,9258308000.00,ACK
12597,9258358000.00,Start repeat
12598,9258379000.00,Address read: A1
12599,9258564000.00,Read
12600,9258600000.00,ACK
12601,9258651000.00,Data read: 8A
12602,9258895000.00,ACK
12603,9258931000.00,Data read: AF
12604,9259168000.00,ACK
12605,9259203000.00,Data read: 6F
12606,9259435000.00,NACK
12607,9259475000.00,Stop
12608,9259497000.00,Start
12609,9259517000.00,Address write: A0
12610,9259708000.00,Write
12611,9259744000.00,ACK
12612,9259806000.00,Data write: 01
12613,9260027000.00,ACK
12614,9260077000.00,Data write: 32
12615,9260303000.00,ACK
12616,9260353000.00,Stop
12617,9270774000.00,Start
12618,9270795000.00,Address write: A0
12619,9270980000.00,Write
12620,9271016000.00,ACK
12621,9271066000.00,Data write: 05
12622,9271292000.00,ACK
12623,9271342000.00,Start repeat
12624,9271363000.00,Address read: A1
12625,9271548000.00,Read
12626,9271584000.00,ACK
12627,9271636000.00,Data read: 8A
12628,9271879000.00,ACK
12629,9271915000.00,Data read: AF
12630,9272152000.00,ACK
12631,9272188000.00,Data read: 6E
12632,9272420000.00,NACK
12633,9272459000.00,Stop
12634,9281767000.00,Start
12635,9281787000.00,Address write: A0
12636,9281973000.00,Write
12637,9282008000.00,ACK
12638,9282059000.00,Data write: 05
12639,9282285000.00,ACK
12640,9282335000.00,Start repeat
12641,9282356000.00,Address read: A1
12642,9282541000.00,Read
12643,9282577000.00,ACK
12644,9282628000.00,Data read: 8A
12645,9282872000.00,ACK
12646,9282908000.00,Data read: AF
12647,9283145000.00,ACK
12648,9283181000.00,Data read: 6E
12649,9283412000.00,NACK
12650,9283452000.00,Stop
12651,9292747000.00,Start
12652,9292768000.00,Address write: A0
12653,9292953000.00,Write
12654,9292988000.00,ACK
12655,9293039000.00,Data write: 05
12656,9293265000.00,ACK
12657,9293315000.00,Start repeat
12658,9293336000.00,Address read: A1
12659,9293521000.00,Read
12660,9293556000.00,ACK
12661,9293608000.00,Data read: E0
12662,9293852000.00,ACK
12663,9293888000.00,Data read: D8
12664,9294125000.00,ACK
12665,9294160000.00,Data read: 2F
12666,9294392000.00,NACK
12667,9294432000.00,Stop
12668,9303739000.00,Start
12669,9303759000.00,Address write: A0
12670,9303945000.00,Write
12671,9303981000.00,ACK
12672,9304031000.00,Data write: 05
12673,9304257000.00,ACK
12674,9304307000.00,Start repeat
12675,9304328000.00,Address read: A1
12676,9304513000.00,Read
12677,9304549000.00,ACK
12678,9304600000.00,Data read: E0
12679,9304844000.00,ACK
12680,9304880000.00,Data read: D6
12681,9305117000.00,ACK
12682,9305153000.00,Data read: BF
12683,9305385000.00,NACK
12684,9305424000.00,Stop
12685,9314722000.00,Start
12686,9314743000.00,Address write: A0
12687,9314928000.00,Write
12688,9314964000.00,ACK
12689,9315014000.00,Data write: 05
12690,9315240000.00,ACK
12691,9315290000.00,Start repeat
12692,9315311000.00,Address read: A1
12693,9315496000.00,Read
12694,9315532000.00,ACK
12695,9315583000.00,Data read: E0
12696,9315827000.00,ACK
12697,9315863000.00,Data read: D3
12698,9316100000.00,ACK
12699,9316136000.00,Data read: 8D
12700,9316367000.00,NACK
12701,9316407000.00,Stop
12702,9343915000.00,Start
12703,9343936000.00,Address write: A0
12704,9344127000.00,Write
12705,9344162000.00,ACK
12706,9344213000.00,Data write: 05
12707,9344434000.00,ACK
12708,9344483000.00,Start repeat
12709,9344504000.00,Address read: A1
12710,9344707000.00,Read
12711,9344742000.00,ACK
12712,9344789000.00,Data read: E0
12713,9345020000.00,ACK
12714,9345061000.00,Data read: CA
12715,9345293000.00,ACK
12716,9345329000.00,Data read: 6B
12717,9345566000.00,NACK
12718,9345605000.00,Stop
12719,9354679000.00,Start
12720,9354699000.00,Address write: A0
12721,9354885000.00,Write
12722,9354921000.00,ACK
12723,9354971000.00,Data write: 05
12724,9355197000.00,ACK
12725,9355247000.00,Start repeat
12726,9355268000.00,Address read: A1
12727,9355454000.00,Read
12728,9355489000.00,ACK
12729,9355541000.00,Data read: E0
12730,9355785000.00,ACK
12731,9355820000.00,Data read: C8
12732,9356057000.00,ACK
12733,9356093000.00,Data read: 5D
12734,9356325000.00,NACK
12735,9356365000.00,Stop
12736,9365664000.00,Start
12737,9365685000.00,Address write: A0
12738,9365870000.00,Write
12739,9365906000.00,ACK
12740,9365956000.00,Data write: 05
12741,9366182000.00,ACK
12742,9366232000.00,Start repeat
12743,9366253000.00,Address read: A1
12744,9366438000.00,Read
12745,9366474000.00,ACK
12746,9366525000.00,Data read: E0
12747,9366769000.00,ACK
12748,9366805000.00,Data read: C7
12749,9367042000.00,ACK
12750,9367078000.00,Data read: C9
12751,9367309000.00,NACK
12752,9367349000.00,Stop
12753,9376653000.00,Start
12754,9376673000.00,Address write: A0
12755,9376859000.00,Write
12756,9376894000.00,ACK
12757,9376945000.00,Data write: 05
12758,9377171000.00,ACK
12759,9377221000.00,Start repeat
12760,9377241000.00,Address read: A1
12761,9377427000.00,Read
12762,9377462000.00,ACK
12763,9377514000.00,Data read: E0
12764,9377758000.00,ACK
12765,9377794000.00,Data read: CB
12766,9378030000.00,ACK
12767,9378066000.00,Data read: 9D
12768,9378298000.00,NACK
12769,9378338000.00,Stop
12770,9387636000.00,Start
12771,9387657000.00,Address write: A0
12772,9387843000.00,Write
12773,9387878000.00,ACK
12774,9387929000.00,Data write: 05
12775,9388155000.00,ACK
12776,9388205000.00,Start repeat
12777,9388225000.00,Address read: A1
12778,9388411000.00,Read
12779,9388446000.00,ACK
12780,9388498000.00,Data read: E0
12781,9388742000.00,ACK
12782,9388778000.00,Data read: D5
12783,9389015000.00,ACK
12784,9389051000.00,Data read: 2F
12785,9389282000.00,NACK
12786,9389322000.00,Stop
12787,9398622000.00,Start
12788,9398642000.00,Address write: A0
12789,9398828000.00,Write
12790,9398863000.00,ACK
12791,9398914000.00,Data write: 05
12792,9399140000.00,ACK
12793,9399190000.00,Start repeat
12794,9399210000.00,Address read: A1
12795,9399396000.00,Read
12796,9399431000.00,ACK
12797,9399483000.00,Data read: E0
12798,9399727000.00,ACK
12799,9399763000.00,Data read: D2
12800,9400000000.00,ACK
12801,9400035000.00,Data read: 67
12802,9400267000.00,NACK
12803,9400307000.00,Stop
12804,9409609000.00,Start
12805,9409629000.00,Address write: A0
12806,9409815000.00,Write
12807,9409850000.00,ACK
12808,9409901000.00,Data write: 05
12809,9410127000.00,ACK
12810,9410177000.00,Start repeat
12811,9410197000.00,Address read: A1
12812,9410383000.00,Read
12813,9410418000.00,ACK
12814,9410470000.00,Data read: E0
12815,9410714000.00,ACK
12816,9410750000.00,Data read: D4
12817,9410986000.00,ACK
12818,9411022000.00,Data read: 13
12819,9411254000.00,NACK
12820,9411293000.00,Stop
12821,9411315000.00,Start
12822,9411336000.00,Address write: A0
12823,9411527000.00,Write
12824,9411563000.00,ACK
12825,9411625000.00,Data write: 01
12826,9411845000.00,ACK
12827,9411896000.00,Data write: 33
12828,9412122000.00,ACK
12829,9412172000.00,Stop
12830,9421591000.00,Start
12831,9421612000.00,Address write: A0
12832,9421798000.00,Write
12833,9421833000.00,ACK
12834,9421884000.00,Data write: 05
12835,9422110000.00,ACK
12836,9422160000.00,Start repeat
12837,9422180000.00,Address read: A1
12838,9422366000.00,Read
12839,9422401000.00,ACK
12840,9422453000.00,Data read: E0
12841,9422697000.00,ACK
12842,9422733000.00,Data read: D4
12843,9422970000.00,ACK
12844,9423006000.00,Data read: 12
12845,9423237000.00,NACK
12846,9423277000.00,Stop
12847,9432573000.00,Start
12848,9432593000.00,Address write: A0
12849,9432779000.00,Write
12850,9432814000.00,ACK
12851,9432865000.00,Data write: 05
12852,9433091000.00,ACK
12853,9433141000.00,Start repeat
12854,9433161000.00,Address read: A1
12855,9433347000.00,Read
12856,9433383000.00,ACK
12857,9433434000.00,Data read: E0
12858,9433678000.00,ACK
12859,9433714000.00,Data read: D4
12860,9433951000.00,ACK
12861,9433986000.00,Data read: 12
12862,9434218000.00,NACK
12863,9434258000.00,Stop
12864,9462753000.00,Start
12865,9462773000.00,Address write: A0
12866,9462964000.00,Write
12867,9463000000.00,ACK
12868,9463050000.00,Data write: 05
12869,9463271000.00,ACK
12870,9463321000.00,Start repeat
12871,9463341000.00,Address read: A1
12872,9463544000.00,Read
12873,9463579000.00,ACK
12874,9463626000.00,Data read: 9F
12875,9463858000.00,ACK
12876,9463899000.00,Data read: 89
12877,9464131000.00,ACK
12878,9464166000.00,Data read: 01
12879,9464403000.00,NACK
12880,9464442000.00,Stop
12881,9473516000.00,Start
12882,9473537000.00,Address write: A0
12883,9473722000.00,Write
12884,9473758000.00,ACK
12885,9473808000.00,Data write: 05
12886,9474034000.00,ACK
12887,9474084000.00,Start repeat
12888,9474105000.00,Address read: A1
12889,9474290000.00,Read
12890,9474326000.00,ACK
12891,9474377000.00,Data read: 9F
12892,9474621000.00,ACK
12893,9474657000.00,Data read: 83
12894,9474894000.00,ACK
12895,9474930000.00,Data read: 93
12896,9475161000.00,NACK
12897,9475201000.00,Stop
12898,9484504000.00,Start
12899,9484525000.00,Address write: A0
12900,9484710000.00,Write
12901,9484746000.00,ACK
12902,9484796000.00,Data write: 05
12903,9485022000.00,ACK
12904,9485072000.00,Start repeat
12905,9485093000.00,Address read: A1
12906,9485278000.00,Read
12907,9485314000.00,ACK
12908,9485365000.00,Data read: 9F
12909,9485609000.00,ACK
12910,9485645000.00,Data read: 84
12911,9485882000.00,ACK
12912,9485918000.00,Data read: DB
12913,9486150000.00,NACK
12914,9486189000.00,Stop
12915,9495488000.00,Start
12916,9495508000.00,Address write: A0
12917,9495694000.00,Write
12918,9495729000.00,ACK
12919,9495780000.00,Data write: 05
12920,9496006000.00,ACK
12921,9496056000.00,Start repeat
12922,9496076000.00,Address read: A1
12923,9496262000.00,Read
12924,9496297000.00,ACK
12925,9496349000.00,Data read: 9F
12926,9496593000.00,ACK
12927,9496629000.00,Data read: 87
12928,9496865000.00,ACK
12929,9496901000.00,Data read: 35
12930,9497133000.00,NACK
12931,9497172000.00,Stop
12932,9506472000.00,Start
12933,9506493000.00,Address write: A0
12934,9506678000.00,Write
12935,9506714000.00,ACK
12936,9506764000.00,Data write: 05
12937,9506990000.00,ACK
12938,9507040000.00,Start repeat
12939,9507061000.00,Address read: A1
12940,9507247000.00,Read
12941,9507282000.00,ACK
12942,9507334000.00,Data read: 9F
12943,9507578000.00,ACK
12944,9507613000.00,Data read: 89
12945,9507850000.00,ACK
12946,9507886000.00,Data read: 61
12947,9508118000.00,NACK
12948,9508157000.00,Stop
12949,9517457000.00,Start
12950,9517478000.00,Address write: A0
12951,9517663000.00,Write
12952,9517699000.00,ACK
12953,9517749000.00,Data write: 05
12954,9517975000.00,ACK
12955,9518025000.00,Start repeat
12956,9518046000.00,Address read: A1
12957,9518231000.00,Read
12958,9518267000.00,ACK
12959,9518318000.00,Data read: 9F
12960,9518562000.00,ACK
12961,9518598000.00,Data read: 80
12962,9518835000.00,ACK
12963,9518871000.00,Data read: AB
12964,9519103000.00,NACK
12965,9519142000.00,Stop
12966,9528448000.00,Start
12967,9528469000.00,Address write: A0
12968,9528654000.00,Write
12969,9528690000.00,ACK
12970,9528740000.00,Data write: 05
12971,9528966000.00,ACK
12972,9529016000.00,Start repeat
12973,9529037000.00,Address read: A1
12974,9529222000.00,Read
12975,9529258000.00,ACK
12976,9529309000.00,Data read: 9F
12977,9529553000.00,ACK
12978,9529589000.00,Data read: 87
12979,9529826000.00,ACK
12980,9529862000.00,Data read: A9
12981,9530094000.00,NACK
12982,9530133000.00,Stop
12983,9539433000.00,Start
12984,9539454000.00,Address write: A0
12985,9539639000.00,Write
12986,9539675000.00,ACK
12987,9539725000.00,Data write: 05
12988,9539951000.00,ACK
12989,9540001000.00,Start repeat
12990,9540022000.00,Address read: A1
12991,9540208000.00,Read
12992,9540243000.00,ACK
12993,9540295000.00,Data read: 9F
12994,9540539000.00,ACK
12995,9540575000.00,Data read: 82
12996,9540811000.00,ACK
12997,9540847000.00,Data read: DF
12998,9541079000.00,NACK
12999,9541119000.00,Stop
13000,9550420000.00,Start
13001,9550440000.00,Address write: A0
13002,9550626000.00,Write
13003,9550662000.00,ACK
13004,9550712000.00,Data write: 05
13005,9550938000.00,ACK
13006,9550988000.00,Start repeat
13007,9551009000.00,Address read: A1
13008,9551194000.00,Read
13009,9551230000.00,ACK
13010,9551281000.00,Data read: 9F
13011,9551525000.00,ACK
13012,9551561000.00,Data read: 88
13013,9551798000.00,ACK
13014,9551834000.00,Data read: 09
13015,9552066000.00,NACK
13016,9552105000.00,Stop
13017,9561412000.00,Start
13018,9561433000.00,Address write: A0
13019,9561618000.00,Write
13020,9561654000.00,ACK
13021,9561704000.00,Data write: 05
13022,9561930000.00,ACK
13023,9561980000.00,Start repeat
13024,9562001000.00,Address read: A1
13025,9562187000.00,Read
13026,9562222000.00,ACK
13027,9562274000.00,Data read: 9F
13028,9562518000.00,ACK
13029,9562554000.00,Data read: 80
13030,9562791000.00,ACK
13031,9562826000.00,Data read: 15
13032,9563058000.00,NACK
13033,9563098000.00,Stop
13034,9563120000.00,Start
13035,9563141000.00,Address write: A0
13036,9563331000.00,Write
13037,9563368000.00,ACK
13038,9563429000.00,Data write: 01
13039,9563650000.00,ACK
13040,9563701000.00,Data write: 31
13041,9563927000.00,ACK
13042,9563977000.00,Stop
13043,9583420000.00,Start
13044,9583440000.00,Address write: A0
13045,9583626000.00,Write
13046,9583661000.00,ACK
13047,9583712000.00,Data write: 05
13048,9583938000.00,ACK
13049,9583988000.00,Start repeat
13050,9584008000.00,Address read: A1
13051,9584194000.00,Read
13052,9584234000.00,ACK
13053,9584281000.00,Data read: 9F
13054,9584525000.00,ACK
13055,9584561000.00,Data read: 80
13056,9584797000.00,ACK
13057,9584833000.00,Data read: 14
13058,9585065000.00,NACK
13059,9585104000.00,Stop
13060,9594373000.00,Start
13061,9594394000.00,Address write: A0
13062,9594580000.00,Write
13063,9594615000.00,ACK
13064,9594665000.00,Data write: 05
13065,9594892000.00,ACK
13066,9594942000.00,Start repeat
13067,9594962000.00,Address read: A1
13068,9595148000.00,Read
13069,9595183000.00,ACK
13070,9595235000.00,Data read: 8A
13071,9595479000.00,ACK
13072,9595515000.00,Data read: C6
13073,9595752000.00,ACK
13074,9595788000.00,Data read: 6F
13075,9596019000.00,NACK
13076,9596059000.00,Stop
13077,9605360000.00,Start
13078,9605381000.00,Address write: A0
13079,9605566000.00,Write
13080,9605602000.00,ACK
13081,9605652000.00,Data write: 05
13082,9605879000.00,ACK
13083,9605928000.00,Start repeat
13084,9605949000.00,Address read: A1
13085,9606135000.00,Read
13086,9606170000.00,ACK
13087,9606222000.00,Data read: 8A
13088,9606466000.00,ACK
13089,9606502000.00,Data read: BE
13090,9606739000.00,ACK
13091,9606775000.00,Data read: A7
13092,9607007000.00,NACK
13093,9607046000.00,Stop
13094,9616356000.00,Start
13095,9616377000.00,Address write: A0
13096,9616563000.00,Write
13097,9616598000.00,ACK
13098,9616649000.00,Data write: 05
13099,9616875000.00,ACK
13100,9616925000.00,Start repeat
13101,9616946000.00,Address read: A1
13102,9617131000.00,Read
13103,9617167000.00,ACK
13104,9617218000.00,Data read: 8A
13105,9617462000.00,ACK
13106,9617498000.00,Data read: B8
13107,9617735000.00,ACK
13108,9617771000.00,Data read: E9
13109,9618003000.00,NACK
13110,9618043000.00,Stop
13111,9627343000.00,Start
13112,9627363000.00,Address write: A0
13113,9627549000.00,Write
13114,9627584000.00,ACK
13115,9627635000.00,Data write: 05
13116,9627861000.00,ACK
13117,9627911000.00,Start repeat
13118,9627932000.00,Address read: A1
13119,9628117000.00,Read
13120,9628153000.00,ACK
13121,9628204000.00,Data read: 8A
13122,9628448000.00,ACK
13123,9628484000.00,Data read: B7
13124,9628721000.00,ACK
13125,9628757000.00,Data read: FF
13126,9628989000.00,NACK
13127,9629028000.00,Stop
13128,9638331000.00,Start
13129,9638352000.00,Address write: A0
13130,9638537000.00,Write
13131,9638573000.00,ACK
13132,9638623000.00,Data write: 05
13133,9638849000.00,ACK
13134,9638899000.00,Start repeat
13135,9638920000.00,Address read: A1
13136,9639105000.00,Read
13137,9639141000.00,ACK
13138,9639193000.00,Data read: 8A
13139,9639436000.00,ACK
13140,9639472000.00,Data read: B4
13141,9639709000.00,ACK
13142,9639745000.00,Data read: AD
13143,9639977000.00,NACK
13144,9640016000.00,Stop
13145,9649319000.00,Start
13146,9649340000.00,Address write: A0
13147,9649526000.00,Write
13148,9649561000.00,ACK
13149,9649612000.00,Data write: 05
13150,9649838000.00,ACK
13151,9649888000.00,Start repeat
13152,9649908000.00,Address read: A1
13153,9650094000.00,Read
13154,9650130000.00,ACK
13155,9650181000.00,Data read: 8A
13156,9650425000.00,ACK
13157,9650461000.00,Data read: B5
13158,9650698000.00,ACK
13159,9650734000.00,Data read: 29
13160,9650966000.00,NACK
13161,9651005000.00,Stop
13162,9660306000.00,Start
13163,9660326000.00,Address write: A0
13164,9660512000.00,Write
13165,9660548000.00,ACK
13166,9660598000.00,Data write: 05
13167,9660824000.00,ACK
13168,9660874000.00,Start repeat
13169,9660895000.00,Address read: A1
13170,9661080000.00,Read
13171,9661116000.00,ACK
13172,9661168000.00,Data read: 8A
13173,9661412000.00,ACK
13174,9661447000.00,Data read: B2
13175,9661684000.00,ACK
13176,9661720000.00,Data read: 1B
13177,9661952000.00,NACK
13178,9661992000.00,Stop
13179,9671293000.00,Start
13180,9671314000.00,Address write: A0
13181,9671499000.00,Write
13182,9671535000.00,ACK
13183,9671585000.00,Data write: 05
13184,9671811000.00,ACK
13185,9671861000.00,Start repeat
13186,9671882000.00,Address read: A1
13187,9672068000.00,Read
13188,9672103000.00,ACK
13189,9672155000.00,Data read: 8A
13190,9672399000.00,ACK
13191,9672435000.00,Data read: B3
13192,9672672000.00,ACK
13193,9672708000.00,Data read: 1B
13194,9672939000.00,NACK
13195,9672979000.00,Stop
13196,9682287000.00,Start
13197,9682308000.00,Address write: A0
13198,9682493000.00,Write
13199,9682529000.00,ACK
13200,9682579000.00,Data write: 05
13201,9682805000.00,ACK
13202,9682855000.00,Start repeat
13203,9682876000.00,Address read: A1
13204,9683062000.00,Read
13205,9683097000.00,ACK
13206,9683149000.00,Data read: 8A
13207,9683393000.00,ACK
13208,9683429000.00,Data read: B0
13209,9683666000.00,ACK
13210,9683701000.00,Data read: 43
13211,9683933000.00,NACK
13212,9683973000.00,Stop
13213,9703208000.00,Start
13214,9703230000.00,Address write: A0
13215,9703426000.00,Write
13216,9703462000.00,ACK
13217,9703512000.00,Data write: 05
13218,9703738000.00,ACK
13219,9703788000.00,Start repeat
13220,9703809000.00,Address read: A1
13221,9703994000.00,Read
13222,9704030000.00,ACK
13223,9704077000.00,Data read: 8A
13224,9704325000.00,ACK
13225,9704361000.00,Data read: B1
13226,9704593000.00,ACK
13227,9704634000.00,Data read: 9D
13228,9704866000.00,NACK
13229,9704905000.00,Stop
13230,9704928000.00,Start
13231,9704948000.00,Address write: A0
13232,9705139000.00,Write
13233,9705174000.00,ACK
13234,9705226000.00,Data write: 01
13235,9705458000.00,ACK
13236,9705509000.00,Data write: 32
13237,9705735000.00,ACK
13238,9705785000.00,Stop
13239,9716250000.00,Start
13240,9716270000.00,Address write: A0
13241,9716456000.00,Write
13242,9716491000.00,ACK
13243,9716542000.00,Data write: 05
13244,9716768000.00,ACK
13245,9716818000.00,Start repeat
13246,9716839000.00,Address read: A1
13247,9717024000.00,Read
13248,9717060000.00,ACK
13249,9717111000.00,Data read: 8A
13250,9717355000.00,ACK
13251,9717391000.00,Data read: B1
13252,9717628000.00,ACK
13253,9717664000.00,Data read: 9C
13254,9717896000.00,NACK
13255,9717935000.00,Stop
13256,9727233000.00,Start
13257,9727254000.00,Address write: A0
13258,9727439000.00,Write
13259,9727475000.00,ACK
13260,9727525000.00,Data write: 05
13261,9727751000.00,ACK
13262,9727801000.00,Start repeat
13263,9727822000.00,Address read: A1
13264,9728008000.00,Read
13265,9728043000.00,ACK
13266,9728095000.00,Data read: 8A
13267,9728338000.00,ACK
13268,9728374000.00,Data read: B1
13269,9728611000.00,ACK
13270,9728647000.00,Data read: 9C
13271,9728879000.00,NACK
13272,9728918000.00,Stop
13273,9738226000.00,Start
13274,9738247000.00,Address write: A0
13275,9738432000.00,Write
13276,9738468000.00,ACK
13277,9738518000.00,Data write: 05
13278,9738745000.00,ACK
13279,9738794000.00,Start repeat
13280,9738815000.00,Address read: A1
13281,9739001000.00,Read
13282,9739036000.00,ACK
13283,9739088000.00,Data read: E0
13284,9739332000.00,ACK
13285,9739368000.00,Data read: D2
13286,9739605000.00,ACK
13287,9739640000.00,Data read: D5
13288,9739872000.00,NACK
13289,9739912000.00,Stop
13290,9749209000.00,Start
13291,9749230000.00,Address write: A0
13292,9749415000.00,Write
13293,9749450000.00,ACK
13294,9749501000.00,Data write: 05
13295,9749727000.00,ACK
13296,9749777000.00,Start repeat
13297,9749797000.00,Address read: A1
13298,9749983000.00,Read
13299,9750018000.00,ACK
13300,9750070000.00,Data read: E0
13301,9750314000.00,ACK
13302,9750350000.00,Data read: D5
13303,9750586000.00,ACK
13304,9750622000.00,Data read: 37
13305,9750854000.00,NACK
13306,9750893000.00,Stop
13307,9760199000.00,Start
13308,9760220000.00,Address write: A0
13309,9760406000.00,Write
13310,9760441000.00,ACK
13311,9760491000.00,Data write: 05
13312,9760718000.00,ACK
13313,9760768000.00,Start repeat
13314,9760788000.00,Address read: A1
13315,9760974000.00,Read
13316,9761009000.00,ACK
13317,9761061000.00,Data read: E0
13318,9761305000.00,ACK
13319,9761341000.00,Data read: D8
13320,9761578000.00,ACK
13321,9761613000.00,Data read: 01
13322,9761845000.00,NACK
13323,9761885000.00,Stop
13324,9771184000.00,Start
13325,9771205000.00,Address write: A0
13326,9771390000.00,Write
13327,9771426000.00,ACK
13328,9771476000.00,Data write: 05
13329,9771702000.00,ACK
13330,9771752000.00,Start repeat
13331,9771773000.00,Address read: A1
13332,9771958000.00,Read
13333,9771994000.00,ACK
13334,9772045000.00,Data read: E0
13335,9772289000.00,ACK
13336,9772325000.00,Data read: DC
13337,9772562000.00,ACK
13338,9772597000.00,Data read: C5
13339,9772829000.00,NACK
13340,9772869000.00,Stop
13341,9782166000.00,Start
13342,9782186000.00,Address write: A0
13343,9782372000.00,Write
13344,9782407000.00,ACK
13345,9782458000.00,Data write: 05
13346,9782684000.00,ACK
13347,9782734000.00,Start repeat
13348,9782755000.00,Address read: A1
13349,9782940000.00,Read
13350,9782976000.00,ACK
13351,9783027000.00,Data read: E0
13352,9783271000.00,ACK
13353,9783307000.00,Data read: DC
13354,9783544000.00,ACK
13355,9783580000.00,Data read: AD
13356,9783812000.00,NACK
13357,9783851000.00,Stop
13358,9793159000.00,Start
13359,9793180000.00,Address write: A0
13360,9793366000.00,Write
13361,9793401000.00,ACK
13362,9793451000.00,Data write: 05
13363,9793678000.00,ACK
13364,9793728000.00,Start repeat
13365,9793748000.00,Address read: A1
13366,9793934000.00,Read
13367,9793969000.00,ACK
13368,9794021000.00,Data read: E0
13369,9794265000.00,ACK
13370,9794301000.00,Data read: DA
13371,9794538000.00,ACK
13372,9794573000.00,Data read: 4B
13373,9794805000.00,NACK
13374,9794845000.00,Stop
13375,9821349000.00,Start
13376,9821370000.00,Address write: A0
13377,9821561000.00,Write
13378,9821596000.00,ACK
13379,9821646000.00,Data write: 05
13380,9821868000.00,ACK
13381,9821917000.00,Start repeat
13382,9821938000.00,Address read: A1
13383,9822141000.00,Read
13384,9822176000.00,ACK
13385,9822223000.00,Data read: E0
13386,9822455000.00,ACK
13387,9822496000.00,Data read: D1
13388,9822728000.00,ACK
13389,9822763000.00,Data read: 07
13390,9823000000.00,NACK
13391,9823040000.00,Stop
13392,9832115000.00,Start
13393,9832136000.00,Address write: A0
13394,9832321000.00,Write
13395,9832357000.00,ACK
13396,9832407000.00,Data write: 05
13397,9832634000.00,ACK
13398,9832684000.00,Start repeat
13399,9832704000.00,Address read: A1
13400,9832890000.00,Read
13401,9832925000.00,ACK
13402,9832977000.00,Data read: E0
13403,9833221000.00,ACK
13404,9833257000.00,Data read: D2
13405,9833494000.00,ACK
13406,9833530000.00,Data read: 51
13407,9833761000.00,NACK
13408,9833801000.00,Stop
13409,9843103000.00,Start
13410,9843123000.00,Address write: A0
13411,9843309000.00,Write
13412,9843344000.00,ACK
13413,9843395000.00,Data write: 05
13414,9843621000.00,ACK
13415,9843671000.00,Start repeat
13416,9843692000.00,Address read: A1
13417,9843877000.00,Read
13418,9843913000.00,ACK
13419,9843964000.00,Data read: E0
13420,9844208000.00,ACK
13421,9844244000.00,Data read: D3
13422,9844481000.00,ACK
13423,9844517000.00,Data read: ED
13424,9844749000.00,NACK
13425,9844788000.00,Stop
13426,9854097000.00,Start
13427,9854118000.00,Address write: A0
13428,9854303000.00,Write
13429,9854339000.00,ACK
13430,9854389000.00,Data write: 05
13431,9854615000.00,ACK
13432,9854665000.00,Start repeat
13433,9854686000.00,Address read: A1
13434,9854872000.00,Read
13435,9854907000.00,ACK
13436,9854959000.00,Data read: E0
13437,9855203000.00,ACK
13438,9855239000.00,Data read: D4
13439,9855475000.00,ACK
13440,9855511000.00,Data read: FF
13441,9855743000.00,NACK
13442,9855783000.00,Stop
13443,9855805000.00,Start
13444,9855826000.00,Address write: A0
13445,9856016000.00,Write
13446,9856053000.00,ACK
13447,9856114000.00,Data write: 01
13448,9856335000.00,ACK
13449,9856386000.00,Data write: 33
13450,9856612000.00,ACK
13451,9856662000.00,Stop
13452,9866081000.00,Start
13453,9866102000.00,Address write: A0
13454,9866287000.00,Write
13455,9866323000.00,ACK
13456,9866373000.00,Data write: 05
13457,9866599000.00,ACK
13458,9866649000.00,Start repeat
13459,9866670000.00,Address read: A1
13460,9866855000.00,Read
13461,9866891000.00,ACK
13462,9866942000.00,Data read: E0
13463,9867186000.00,ACK
13464,9867222000.00,Data read: D4
13465,9867459000.00,ACK
13466,9867495000.00,Data read: FE
13467,9867726000.00,NACK
13468,9867766000.00,Stop
13469,9877065000.00,Start
13470,9877086000.00,Address write: A0
13471,9877271000.00,Write
13472,9877307000.00,ACK
13473,9877357000.00,Data write: 05
13474,9877583000.00,ACK
13475,9877633000.00,Start repeat
13476,9877654000.00,Address read: A1
13477,9877839000.00,Read
13478,9877875000.00,ACK
13479,9877926000.00,Data read: E0
13480,9878170000.00,ACK
13481,9878206000.00,Data read: D4
13482,9878443000.00,ACK
13483,9878479000.00,Data read: FE
13484,9878711000.00,NACK
13485,9878750000.00,Stop
13486,9888056000.00,Start
13487,9888076000.00,Address write: A0
13488,9888262000.00,Write
13489,9888297000.00,ACK
13490,9888348000.00,Data write: 05
13491,9888574000.00,ACK
13492,9888624000.00,Start repeat
13493,9888645000.00,Address read: A1
13494,9888830000.00,Read
13495,9888866000.00,ACK
13496,9888917000.00,Data read: 9F
13497,9889161000.00,ACK
13498,9889197000.00,Data read: 87
13499,9889434000.00,ACK
13500,9889470000.00,Data read: 23
13501,9889702000.00,NACK
13502,9889741000.00,Stop
13503,9899042000.00,Start
13504,9899063000.00,Address write: A0
13505,9899248000.00,Write
13506,9899284000.00,ACK
13507,9899334000.00,Data write: 05
13508,9899560000.00,ACK
13509,9899610000.00,Start repeat
13510,9899631000.00,Address read: A1
13511,9899816000.00,Read
13512,9899852000.00,ACK
13513,9899904000.00,Data read: 9F
13514,9900147000.00,ACK
13515,9900183000.00,Data read: 82
13516,9900420000.00,ACK
13517,9900456000.00,Data read: 1D
13518,9900688000.00,NACK
13519,9900727000.00,Stop
13520,9910029000.00,Start
13521,9910050000.00,Address write: A0
13522,9910235000.00,Write
13523,9910271000.00,ACK
13524,9910321000.00,Data write: 05
13525,9910547000.00,ACK
13526,9910597000.00,Start repeat
13527,9910618000.00,Address read: A1
13528,9910804000.00,Read
13529,9910839000.00,ACK
13530,9910891000.00,Data read: 9F
13531,9911135000.00,ACK
13532,9911171000.00,Data read: 85
13533,9911408000.00,ACK
13534,9911443000.00,Data read: 27
13535,9911675000.00,NACK
13536,9911715000.00,Stop
13537,9940221000.00,Start
13538,9940241000.00,Address write: A0
13539,9940432000.00,Write
13540,9940468000.00,ACK
13541,9940518000.00,Data write: 05
13542,9940739000.00,ACK
13543,9940789000.00,Start repeat
13544,9940810000.00,Address read: A1
13545,9941012000.00,Read
13546,9941048000.00,ACK
13547,9941095000.00,Data read: 9F
13548,9941327000.00,ACK
13549,9941368000.00,Data read: 7D
13550,9941599000.00,ACK
13551,9941635000.00,Data read: FF
13552,9941872000.00,NACK
13553,9941912000.00,Stop
13554,9950986000.00,Start
13555,9951007000.00,Address write: A0
13556,9951192000.00,Write
13557,9951228000.00,ACK
13558,9951278000.00,Data write: 05
13559,9951504000.00,ACK
13560,9951554000.00,Start repeat
13561,9951575000.00,Address read: A1
13562,9951761000.00,Read
13563,9951796000.00,ACK
13564,9951848000.00,Data read: 9F
13565,9952092000.00,ACK
13566,9952127000.00,Data read: 81
13567,9952364000.00,ACK
13568,9952400000.00,Data read: 85
13569,9952632000.00,NACK
13570,9952671000.00,Stop
13571,9961979000.00,Start
13572,9962000000.00,Address write: A0
13573,9962186000.00,Write
13574,9962221000.00,ACK
13575,9962271000.00,Data write: 05
13576,9962498000.00,ACK
13577,9962548000.00,Start repeat
13578,9962568000.00,Address read: A1
13579,9962754000.00,Read
13580,9962789000.00,ACK
13581,9962841000.00,Data read: 9F
13582,9963085000.00,ACK
13583,9963121000.00,Data read: 7F
13584,9963358000.00,ACK
13585,9963394000.00,Data read: DB
13586,9963626000.00,NACK
13587,9963665000.00,Stop
13588,9972967000.00,Start
13589,9972987000.00,Address write: A0
13590,9973173000.00,Write
13591,9973208000.00,ACK
13592,9973259000.00,Data write: 05
13593,9973485000.00,ACK
13594,9973535000.00,Start repeat
13595,9973556000.00,Address read: A1
13596,9973741000.00,Read
13597,9973777000.00,ACK
13598,9973828000.00,Data read: 9F
13599,9974072000.00,ACK
13600,9974108000.00,Data read: 85
13601,9974345000.00,ACK
13602,9974381000.00,Data read: 8B
13603,9974613000.00,NACK
13604,9974652000.00,Stop
13605,9983954000.00,Start
13606,9983975000.00,Address write: A0
13607,9984160000.00,Write
13608,9984196000.00,ACK
13609,9984246000.00,Data write: 05
13610,9984472000.00,ACK
13611,9984522000.00,Start repeat
13612,9984543000.00,Address read: A1
13613,9984728000.00,Read
13614,9984764000.00,ACK
13615,9984815000.00,Data read: 9F
13616,9985059000.00,ACK
13617,9985095000.00,Data read: 85
13618,9985332000.00,ACK
13619,9985368000.00,Data read: 73
13620,9985600000.00,NACK
13621,9985639000.00,Stop
13622,9994941000.00,Start
13623,9994962000.00,Address write: A0
13624,9995147000.00,Write
13625,9995183000.00,ACK
13626,9995233000.00,Data write: 05
13627,9995459000.00,ACK
13628,9995509000.00,Start repeat
13629,9995530000.00,Address read: A1
13630,9995715000.00,Read
13631,9995751000.00,ACK
13632,9995803000.00,Data read: 9F
13633,9996046000.00,ACK
13634,9996082000.00,Data read: 7D
13635,9996319000.00,ACK
13636,9996355000.00,Data read: D7
13637,9996587000.00,NACK
13638,9996626000.00,Stop
13639,10005936000.00,Start
13640,10005957000.00,Address write: A0
13641,10006142000.00,Write
13642,10006178000.00,ACK
13643,10006228000.00,Data write: 05
13644,10006454000.00,ACK
13645,10006504000.00,Start repeat
13646,10006525000.00,Address read: A1
13647,10006711000.00,Read
13648,10006746000.00,ACK
13649,10006798000.00,Data read: 9F
13650,10007042000.00,ACK
13651,10007078000.00,Data read: 81
13652,10007315000.00,ACK
13653,10007350000.00,Data read: E3
13654,10007582000.00,NACK
13655,10007622000.00,Stop
13656,10007644000.00,Start
13657,10007665000.00,Address write: A0
13658,10007855000.00,Write
13659,10007892000.00,ACK
13660,10007953000.00,Data write: 01
13661,10008175000.00,ACK
13662,10008225000.00,Data write: 31
13663,10008451000.00,ACK
13664,10008501000.00,Stop
13665,10017925000.00,Start
13666,10017946000.00,Address write: A0
13667,10018131000.00,Write
13668,10018167000.00,ACK
13669,10018217000.00,Data write: 05
13670,10018443000.00,ACK
13671,10018493000.00,Start repeat
13672,10018514000.00,Address read: A1
13673,10018700000.00,Read
13674,10018735000.00,ACK
13675,10018787000.00,Data read: 9F
13676,10019031000.00,ACK
13677,10019067000.00,Data read: 81
13678,10019304000.00,ACK
13679,10019340000.00,Data read: E2
13680,10019571000.00,NACK
13681,10019611000.00,Stop
13682,10028913000.00,Start
13683,10028934000.00,Address write: A0
13684,10029119000.00,Write
13685,10029155000.00,ACK
13686,10029205000.00,Data write: 05
13687,10029431000.00,ACK
13688,10029481000.00,Start repeat
13689,10029502000.00,Address read: A1
13690,10029687000.00,Read
13691,10029723000.00,ACK
13692,10029775000.00,Data read: 9F
13693,10030018000.00,ACK
13694,10030054000.00,Data read: 81
13695,10030291000.00,ACK
13696,10030327000.00,Data read: E2
13697,10030559000.00,NACK
13698,10030598000.00,Stop
13699,10059105000.00,Start
13700,10059126000.00,Address write: A0
13701,10059317000.00,Write
13702,10059352000.00,ACK
13703,10059403000.00,Data write: 05
13704,10059624000.00,ACK
13705,10059674000.00,Start repeat
13706,10059694000.00,Address read: A1
13707,10059897000.00,Read
13708,10059933000.00,ACK
13709,10059979000.00,Data read: 8A
13710,10060211000.00,ACK
13711,10060252000.00,Data read: B9
13712,10060484000.00,ACK
13713,10060520000.00,Data read: 79
13714,10060757000.00,NACK
13715,10060796000.00,Stop
13716,10069870000.00,Start
13717,10069890000.00,Address write: A0
13718,10070076000.00,Write
13719,10070111000.00,ACK
13720,10070162000.00,Data write: 05
13721,10070388000.00,ACK
13722,10070438000.00,Start repeat
13723,10070458000.00,Address read: A1
13724,10070644000.00,Read
13725,10070680000.00,ACK
13726,10070731000.00,Data read: 8A
13727,10070975000.00,ACK
13728,10071011000.00,Data read: B7
13729,10071248000.00,ACK
13730,10071284000.00,Data read: 6B
13731,10071516000.00,NACK
13732,10071555000.00,Stop
13733,10080864000.00,Start
13734,10080884000.00,Address write: A0
13735,10081070000.00,Write
13736,10081105000.00,ACK
13737,10081156000.00,Data write: 05
13738,10081382000.00,ACK
13739,10081432000.00,Start repeat
13740,10081453000.00,Address read: A1
13741,10081638000.00,Read
13742,10081674000.00,ACK
13743,10081725000.00,Data read: 8A
13744,10081969000.00,ACK
13745,10082005000.00,Data read: B8
13746,10082242000.00,ACK
13747,10082278000.00,Data read: 41
13748,10082510000.00,NACK
13749,10082549000.00,Stop
13750,10091850000.00,Start
13751,10091871000.00,Address write: A0
13752,10092056000.00,Write
13753,10092092000.00,ACK
13754,10092142000.00,Data write: 05
13755,10092368000.00,ACK
13756,10092418000.00,Start repeat
13757,10092439000.00,Address read: A1
13758,10092624000.00,Read
13759,10092660000.00,ACK
13760,10092712000.00,Data read: 8A
13761,10092955000.00,ACK
13762,10092991000.00,Data read: B5
13763,10093228000.00,ACK
13764,10093264000.00,Data read: 97
13765,10093496000.00,NACK
13766,10093535000.00,Stop
13767,10102834000.00,Start
13768,10102855000.00,Address write: A0
13769,10103040000.00,Write
13770,10103076000.00,ACK
13771,10103126000.00,Data write: 05
13772,10103352000.00,ACK
13773,10103402000.00,Start repeat
13774,10103423000.00,Address read: A1
13775,10103609000.00,Read
13776,10103644000.00,ACK
13777,10103696000.00,Data read: 8A
13778,10103940000.00,ACK
13779,10103975000.00,Data read: B4
13780,10104212000.00,ACK
13781,10104248000.00,Data read: E5
13782,10104480000.00,NACK
13783,10104520000.00,Stop
13784,10113828000.00,Start
13785,10113848000.00,Address write: A0
13786,10114034000.00,Write
13787,10114069000.00,ACK
13788,10114120000.00,Data write: 05
13789,10114346000.00,ACK
13790,10114396000.00,Start repeat
13791,10114417000.00,Address read: A1
13792,10114602000.00,Read
13793,10114638000.00,ACK
13794,10114689000.00,Data read: 8A
13795,10114933000.00,ACK
13796,10114969000.00,Data read: B2
13797,10115206000.00,ACK
13798,10115242000.00,Data read: D1
13799,10115474000.00,NACK
13800,10115513000.00,Stop
13801,10124814000.00,Start
13802,10124835000.00,Address write: A0
13803,10125020000.00,Write
13804,10125056000.00,ACK
13805,10125106000.00,Data write: 05
13806,10125332000.00,ACK
13807,10125382000.00,Start repeat
13808,10125403000.00,Address read: A1
13809,10125588000.00,Read
13810,10125624000.00,ACK
13811,10125676000.00,Data read: 8A
13812,10125920000.00,ACK
13813,10125955000.00,Data read: B1
13814,10126192000.00,ACK
13815,10126228000.00,Data read: 05
13816,10126460000.00,NACK
13817,10126500000.00,Stop
13818,10135801000.00,Start
13819,10135821000.00,Address write: A0
13820,10136007000.00,Write
13821,10136042000.00,ACK
13822,10136093000.00,Data write: 05
13823,10136319000.00,ACK
13824,10136369000.00,Start repeat
13825,10136389000.00,Address read: A1
13826,10136575000.00,Read
13827,10136610000.00,ACK
13828,10136662000.00,Data read: 8A
13829,10136905000.00,ACK
13830,10136941000.00,Data read: B1
13831,10137178000.00,ACK
13832,10137214000.00,Data read: 31
13833,10137446000.00,NACK
13834,10137485000.00,Stop
13835,10146793000.00,Start
13836,10146814000.00,Address write: A0
13837,10146999000.00,Write
13838,10147035000.00,ACK
13839,10147085000.00,Data write: 05
13840,10147311000.00,ACK
13841,10147361000.00,Start repeat
13842,10147382000.00,Address read: A1
13843,10147568000.00,Read
13844,10147603000.00,ACK
13845,10147655000.00,Data read: 8A
13846,10147899000.00,ACK
13847,10147935000.00,Data read: AF
13848,10148172000.00,ACK
13849,10148208000.00,Data read: 67
13850,10148439000.00,NACK
13851,10148479000.00,Stop
13852,10157781000.00,Start
13853,10157801000.00,Address write: A0
13854,10157987000.00,Write
13855,10158022000.00,ACK
13856,10158073000.00,Data write: 05
13857,10158299000.00,ACK
13858,10158349000.00,Start repeat
13859,10158369000.00,Address read: A1
13860,10158555000.00,Read
13861,10158590000.00,ACK
13862,10158642000.00,Data read: 8A
13863,10158886000.00,ACK
13864,10158922000.00,Data read: B1
13865,10159158000.00,ACK
13866,10159194000.00,Data read: 1B
13867,10159426000.00,NACK
13868,10159465000.00,Stop
13869,10159487000.00,Start
13870,10159508000.00,Address write: A0
13871,10159699000.00,Write
13872,10159735000.00,ACK
13873,10159796000.00,Data write: 01
13874,10160017000.00,ACK
13875,10160068000.00,Data write: 32
13876,10160294000.00,ACK
13877,10160344000.00,Stop
13878,10180809000.00,Start
13879,10180830000.00,Address write: A0
13880,10181015000.00,Write
13881,10181051000.00,ACK
13882,10181106000.00,Data write: 05
13883,10181327000.00,ACK
13884,10181377000.00,Start repeat
13885,10181398000.00,Address read: A1
13886,10181583000.00,Read
13887,10181624000.00,ACK
13888,10181671000.00,Data read: 8A
13889,10181914000.00,ACK
13890,10181950000.00,Data read: B1
13891,10182187000.00,ACK
13892,10182223000.00,Data read: 1A
13893,10182454000.00,NACK
13894,10182494000.00,Stop
13895,10191731000.00,Start
13896,10191752000.00,Address write: A0
13897,10191938000.00,Write
13898,10191973000.00,ACK
13899,10192023000.00,Data write: 05
13900,10192249000.00,ACK
13901,10192299000.00,Start repeat
13902,10192320000.00,Address read: A1
13903,10192506000.00,Read
13904,10192541000.00,ACK
13905,10192593000.00,Data read: E0
13906,10192837000.00,ACK
13907,10192872000.00,Data read: D0
13908,10193109000.00,ACK
13909,10193145000.00,Data read: 87
13910,10193377000.00,NACK
13911,10193416000.00,Stop
13912,10202723000.00,Start
13913,10202743000.00,Address write: A0
13914,10202929000.00,Write
13915,10202964000.00,ACK
13916,10203014000.00,Data write: 05
13917,10203241000.00,ACK
13918,10203291000.00,Start repeat
13919,10203311000.00,Address read: A1
13920,10203497000.00,Read
13921,10203532000.00,ACK
13922,10203584000.00,Data read: E0
13923,10203828000.00,ACK
13924,10203864000.00,Data read: CF
13925,10204101000.00,ACK
13926,10204136000.00,Data read: 07
13927,10204368000.00,NACK
13928,10204408000.00,Stop
13929,10213708000.00,Start
13930,10213729000.00,Address write: A0
13931,10213914000.00,Write
13932,10213950000.00,ACK
13933,10214000000.00,Data write: 05
13934,10214226000.00,ACK
13935,10214276000.00,Start repeat
13936,10214297000.00,Address read: A1
13937,10214482000.00,Read
13938,10214518000.00,ACK
13939,10214570000.00,Data read: E0
13940,10214813000.00,ACK
13941,10214849000.00,Data read: CD
13942,10215086000.00,ACK
13943,10215122000.00,Data read: 05
13944,10215354000.00,NACK
13945,10215393000.00,Stop
13946,10224693000.00,Start
13947,10224714000.00,Address write: A0
13948,10224900000.00,Write
13949,10224935000.00,ACK
13950,10224985000.00,Data write: 05
13951,10225212000.00,ACK
13952,10225261000.00,Start repeat
13953,10225282000.00,Address read: A1
13954,10225468000.00,Read
13955,10225503000.00,ACK
13956,10225555000.00,Data read: E0
13957,10225799000.00,ACK
13958,10225835000.00,Data read: CB
13959,10226072000.00,ACK
13960,10226107000.00,Data read: 87
13961,10226339000.00,NACK
13962,10226379000.00,Stop
13963,10235687000.00,Start
13964,10235708000.00,Address write: A0
13965,10235893000.00,Write
13966,10235929000.00,ACK
13967,10235979000.00,Data write: 05
13968,10236205000.00,ACK
13969,10236255000.00,Start repeat
13970,10236276000.00,Address read: A1
13971,10236461000.00,Read
13972,10236497000.00,ACK
13973,10236548000.00,Data read: E0
13974,10236792000.00,ACK
13975,10236828000.00,Data read: CB
13976,10237065000.00,ACK
13977,10237100000.00,Data read: B3
13978,10237332000.00,NACK
13979,10237372000.00,Stop
13980,10246667000.00,Start
13981,10246688000.00,Address write: A0
13982,10246873000.00,Write
13983,10246909000.00,ACK
13984,10246959000.00,Data write: 05
13985,10247185000.00,ACK
13986,10247235000.00,Start repeat
13987,10247256000.00,Address read: A1
13988,10247441000.00,Read
13989,10247477000.00,ACK
13990,10247528000.00,Data read: E0
13991,10247772000.00,ACK
13992,10247808000.00,Data read: CD
13993,10248045000.00,ACK
13994,10248081000.00,Data read: F1
13995,10248312000.00,NACK
13996,10248352000.00,Stop
13997,10257650000.00,Start
13998,10257670000.00,Address write: A0
13999,10257856000.00,Write
14000,10257891000.00,ACK
14001,10257942000.00,Data write: 05
14002,10258168000.00,ACK
14003,10258218000.00,Start repeat
14004,10258239000.00,Address read: A1
14005,10258424000.00,Read
14006,10258460000.00,ACK
14007,10258511000.00,Data read: E0
14008,10258755000.00,ACK
14009,10258791000.00,Data read: CB
14010,10259028000.00,ACK
14011,10259064000.00,Data read: CB
14012,10259296000.00,NACK
14013,10259335000.00,Stop
14014,10268639000.00,Start
14015,10268659000.00,Address write: A0
14016,10268845000.00,Write
14017,10268880000.00,ACK
14018,10268931000.00,Data write: 05
14019,10269157000.00,ACK
14020,10269207000.00,Start repeat
14021,10269227000.00,Address read: A1
14022,10269413000.00,Read
14023,10269448000.00,ACK
14024,10269500000.00,Data read: E0
14025,10269744000.00,ACK
14026,10269780000.00,Data read: CD
14027,10270017000.00,ACK
14028,10270052000.00,Data read: 0F
14029,10270284000.00,NACK
14030,10270324000.00,Stop
14031,10279626000.00,Start
14032,10279647000.00,Address write: A0
14033,10279832000.00,Write
14034,10279868000.00,ACK
14035,10279918000.00,Data write: 05
14036,10280144000.00,ACK
14037,10280194000.00,Start repeat
14038,10280215000.00,Address read: A1
14039,10280400000.00,Read
14040,10280436000.00,ACK
14041,10280487000.00,Data read: E0
14042,10280731000.00,ACK
14043,10280767000.00,Data read: CB
14044,10281004000.00,ACK
14045,10281040000.00,Data read: C1
14046,10281272000.00,NACK
14047,10281311000.00,Stop
14048,10300546000.00,Start
14049,10300568000.00,Address write: A0
14050,10300765000.00,Write
14051,10300800000.00,ACK
14052,10300850000.00,Data write: 05
14053,10301076000.00,ACK
14054,10301126000.00,Start repeat
14055,10301147000.00,Address read: A1
14056,10301333000.00,Read
14057,10301368000.00,ACK
14058,10301415000.00,Data read: E0
14059,10301663000.00,ACK
14060,10301699000.00,Data read: C8
14061,10301931000.00,ACK
14062,10301972000.00,Data read: E1
14063,10302204000.00,NACK
14064,10302243000.00,Stop
14065,10302265000.00,Start
14066,10302286000.00,Address write: A0
14067,10302477000.00,Write
14068,10302512000.00,ACK
14069,10302563000.00,Data write: 01
14070,10302795000.00,ACK
14071,10302846000.00,Data write: 33
14072,10303072000.00,ACK
14073,10303122000.00,Stop
14074,10312589000.00,Start
14075,10312610000.00,Address write: A0
14076,10312796000.00,Write
14077,10312831000.00,ACK
14078,10312881000.00,Data write: 05
14079,10313108000.00,ACK
14080,10313158000.00,Start repeat
14081,10313178000.00,Address read: A1
14082,10313364000.00,Read
14083,10313399000.00,ACK
14084,10313451000.00,Data read: E0
14085,10313695000.00,ACK
14086,10313731000.00,Data read: C8
14087,10313968000.00,ACK
14088,10314004000.00,Data read: E0
14089,10314235000.00,NACK
14090,10314275000.00,Stop
14091,10323577000.00,Start
14092,10323598000.00,Address write: A0
14093,10323783000.00,Write
14094,10323819000.00,ACK
14095,10323869000.00,Data write: 05
14096,10324096000.00,ACK
14097,10324146000.00,Start repeat
14098,10324166000.00,Address read: A1
14099,10324352000.00,Read
14100,10324387000.00,ACK
14101,10324439000.00,Data read: E0
14102,10324683000.00,ACK
14103,10324719000.00,Data read: C8
14104,10324956000.00,ACK
14105,10324992000.00,Data read: E0
14106,10325223000.00,NACK
14107,10325263000.00,Stop
14108,10334571000.00,Start
14109,10334592000.00,Address write: A0
14110,10334778000.00,Write
14111,10334813000.00,ACK
14112,10334864000.00,Data write: 05
14113,10335090000.00,ACK
14114,10335140000.00,Start repeat
14115,10335160000.00,Address read: A1
14116,10335346000.00,Read
14117,10335382000.00,ACK
14118,10335433000.00,Data read: 9F
14119,10335677000.00,ACK
14120,10335713000.00,Data read: 85
14121,10335950000.00,ACK
14122,10335986000.00,Data read: 61
14123,10336218000.00,NACK
14124,10336257000.00,Stop
14125,10345559000.00,Start
14126,10345580000.00,Address write: A0
14127,10345765000.00,Write
14128,10345801000.00,ACK
14129,10345851000.00,Data write: 05
14130,10346078000.00,ACK
14131,10346128000.00,Start repeat
14132,10346148000.00,Address read: A1
14133,10346334000.00,Read
14134,10346369000.00,ACK
14135,10346421000.00,Data read: 9F
14136,10346665000.00,ACK
14137,10346701000.00,Data read: 88
14138,10346938000.00,ACK
14139,10346974000.00,Data read: A7
14140,10347206000.00,NACK
14141,10347245000.00,Stop
14142,10356546000.00,Start
14143,10356566000.00,Address write: A0
14144,10356752000.00,Write
14145,10356787000.00,ACK
14146,10356838000.00,Data write: 05
14147,10357064000.00,ACK
14148,10357114000.00,Start repeat
14149,10357134000.00,Address read: A1
14150,10357320000.00,Read
14151,10357355000.00,ACK
14152,10357407000.00,Data read: 9F
14153,10357651000.00,ACK
14154,10357687000.00,Data read: 80
14155,10357924000.00,ACK
14156,10357960000.00,Data read: 57
14157,10358191000.00,NACK
14158,10358231000.00,Stop
14159,10367538000.00,Start
14160,10367558000.00,Address write: A0
14161,10367744000.00,Write
14162,10367779000.00,ACK
14163,10367830000.00,Data write: 05
14164,10368056000.00,ACK
14165,10368106000.00,Start repeat
14166,10368127000.00,Address read: A1
14167,10368312000.00,Read
14168,10368348000.00,ACK
14169,10368399000.00,Data read: 9F
14170,10368643000.00,ACK
14171,10368679000.00,Data read: 88
14172,10368916000.00,ACK
14173,10368952000.00,Data read: 81
14174,10369184000.00,NACK
14175,10369224000.00,Stop
14176,10378527000.00,Start
14177,10378548000.00,Address write: A0
14178,10378734000.00,Write
14179,10378769000.00,ACK
14180,10378820000.00,Data write: 05
14181,10379046000.00,ACK
14182,10379096000.00,Start repeat
14183,10379116000.00,Address read: A1
14184,10379302000.00,Read
14185,10379337000.00,ACK
14186,10379389000.00,Data read: 9F
14187,10379633000.00,ACK
14188,10379669000.00,Data read: 85
14189,10379906000.00,ACK
14190,10379942000.00,Data read: 3F
14191,10380174000.00,NACK
14192,10380213000.00,Stop
14193,10389522000.00,Start
14194,10389543000.00,Address write: A0
14195,10389728000.00,Write
14196,10389764000.00,ACK
14197,10389814000.00,Data write: 05
14198,10390040000.00,ACK
14199,10390090000.00,Start repeat
14200,10390111000.00,Address read: A1
14201,10390297000.00,Read
14202,10390332000.00,ACK
14203,10390384000.00,Data read: 9F
14204,10390628000.00,ACK
14205,10390664000.00,Data read: 87
14206,10390901000.00,ACK
14207,10390937000.00,Data read: 23
14208,10391168000.00,NACK
14209,10391208000.00,Stop
14210,10418714000.00,Start
14211,10418735000.00,Address write: A0
14212,10418926000.00,Write
14213,10418961000.00,ACK
14214,10419011000.00,Data write: 05
14215,10419233000.00,ACK
14216,10419282000.00,Start repeat
14217,10419303000.00,Address read: A1
14218,10419506000.00,Read
14219,10419541000.00,ACK
14220,10419588000.00,Data read: 9F
14221,1041982000